12:56:35:4010 Rx 1 0x0F2 s 6 FF FF FF FF 88 88 
12:56:35:4020 Rx 1 0x254 s 4 1A 11 80 38 
12:56:35:4070 Rx 1 0x130 s 8 E8 7F 20 00 BE 7F 21 53 
12:56:35:4070 Rx 1 0x131 s 8 00 00 00 00 03 81 01 1E 
12:56:35:4080 Rx 1 0x100 s 8 00 00 63 00 10 00 00 F2 
12:56:35:4080 Rx 1 0x21A s 5 23 50 A0 00 6D 
12:56:35:4080 Rx 1 0x590 s 3 00 01 00 
12:56:35:4090 Rx 1 0x2B0 s 5 20 00 00 07 FA 
12:56:35:4100 Rx 1 0x152 s 6 00 00 00 0C 0E C1 
12:56:35:4130 Rx 1 0x244 s 4 08 00 00 00 
12:56:35:4170 Rx 1 0x130 s 8 E8 7F 20 00 BE 7F 22 74 
12:56:35:4170 Rx 1 0x131 s 8 00 00 00 00 03 81 02 39 
12:56:35:4190 Rx 1 0x2B0 s 5 20 00 00 07 EB 
12:56:35:4200 Rx 1 0x280 s 8 0F 01 FF 00 FD 58 03 B8 
12:56:35:4200 Rx 1 0x152 s 6 00 00 00 0C 0F DC 
12:56:35:4210 Rx 1 0x153 s 3 E9 97 46 
12:56:35:4210 Rx 1 0x2F0 s 7 00 00 08 99 00 01 28 
12:56:35:4220 Rx 1 0x362 s 8 15 49 24 06 00 10 01 58 
12:56:35:4250 Rx 1 0x37B s 8 00 00 FF FF FF FF FF 0E 
12:56:35:4270 Rx 1 0x130 s 8 E8 7F 20 00 A8 7F 23 74 
12:56:35:4270 Rx 1 0x131 s 8 00 00 00 00 EE 80 03 7D 
12:56:35:4280 Rx 1 0x100 s 8 00 00 63 00 10 00 10 3F 
12:56:35:4280 Rx 1 0x21A s 5 23 50 A0 10 A0 
12:56:35:4290 Rx 1 0x2B0 s 5 20 00 00 07 9C 
12:56:35:4300 Rx 1 0x152 s 6 00 00 00 0C 00 67 
12:56:35:4310 Rx 1 0x151 s 3 3C 68 18 
12:56:35:4310 Rx 1 0x150 s 8 00 00 4A 64 00 80 86 00 
12:56:35:4320 Rx 1 0x155 s 7 FF 7F 00 18 00 60 B3 
12:56:35:4320 Rx 1 0x156 s 7 FF 7F 00 08 E8 63 80 
12:56:35:4320 Rx 1 0x247 s 2 22 24 
12:56:35:4330 Rx 1 0x310 s 3 00 14 14 
12:56:35:4340 Rx 1 0x4CF s 6 00 00 00 00 00 00 
12:56:35:4370 Rx 1 0x130 s 8 E8 7F 20 00 A8 7F 24 27 
12:56:35:4370 Rx 1 0x131 s 8 00 00 00 00 EE 80 04 2E 
12:56:35:4390 Rx 1 0x2B0 s 5 20 00 00 07 8D 
12:56:35:4400 Rx 1 0x152 s 6 00 00 00 0C 01 7A 
12:56:35:4400 Rx 1 0x153 s 3 E9 A7 0C 
12:56:35:4410 Rx 1 0x243 s 2 08 00 
12:56:35:4460 Rx 1 0x246 s 4 00 01 06 07 
12:56:35:4470 Rx 1 0x130 s 8 E8 7F 20 00 BE 7F 25 27 
12:56:35:4470 Rx 1 0x131 s 8 00 00 00 00 EE 80 05 33 
12:56:35:4480 Rx 1 0x100 s 8 00 00 63 00 10 00 20 75 
12:56:35:4480 Rx 1 0x21A s 5 23 50 A0 20 EA 
12:56:35:4480 Rx 1 0x245 s 4 00 01 06 07 
12:56:35:4480 Rx 1 0x249 s 1 10 
12:56:35:4490 Rx 1 0x2B0 s 5 20 00 00 07 BE 
12:56:35:4500 Rx 1 0x152 s 6 00 00 00 0C 02 5D 
12:56:35:4570 Rx 1 0x130 s 8 E8 7F 20 00 BE 7F 26 00 
12:56:35:4570 Rx 1 0x131 s 8 00 00 00 00 EE 80 06 14 
12:56:35:4570 Rx 1 0x590 s 3 00 01 00 
12:56:35:4590 Rx 1 0x2B0 s 5 20 00 00 07 AF 
12:56:35:4600 Rx 1 0x152 s 6 00 00 00 0C 03 40 
12:56:35:4600 Rx 1 0x153 s 3 E9 B7 C1 
12:56:35:4630 Rx 1 0x244 s 4 08 00 00 00 
12:56:35:4660 Rx 1 0x21A s 5 23 50 A0 30 27 
12:56:35:4670 Rx 1 0x130 s 8 E8 7F 20 00 BE 7F 27 1D 
12:56:35:4670 Rx 1 0x131 s 8 00 00 00 00 EE 80 07 09 
12:56:35:4680 Rx 1 0x100 s 8 00 00 63 00 10 00 30 B8 
12:56:35:4680 Rx 1 0x240 s 5 BC 83 EB CB FF 
12:56:35:4690 Rx 1 0x2B0 s 5 20 00 00 07 50 
12:56:35:4700 Rx 1 0x280 s 8 0F 01 FF 00 FD 58 03 B8 
12:56:35:4710 Rx 1 0x152 s 6 00 00 00 0C 04 13 
12:56:35:4710 Rx 1 0x157 s 8 90 00 94 20 43 00 70 2B 
12:56:35:4710 Rx 1 0x23E s 5 55 BC B0 B1 E1 
12:56:35:4720 Rx 1 0x23F s 5 55 BC B0 B1 E1 
12:56:35:4720 Rx 1 0x251 s 3 00 00 00 
12:56:35:4730 Rx 1 0x2F0 s 7 00 00 08 99 00 01 28 
12:56:35:4730 Rx 1 0x362 s 8 15 49 24 06 00 10 01 58 
12:56:35:4730 Rx 1 0x614 s 1 00 
12:56:35:4740 Rx 1 0x615 s 2 00 00 
12:56:35:4770 Rx 1 0x130 s 8 E8 7F 20 00 BE 7F 28 A6 
12:56:35:4770 Rx 1 0x131 s 8 00 00 00 00 EE 80 08 B2 
12:56:35:4780 Rx 1 0x241 s 5 BC 83 EB CB FF 
12:56:35:4790 Rx 1 0x2B0 s 5 20 00 00 07 41 
12:56:35:4800 Rx 1 0x152 s 6 00 00 00 0C 05 0E 
12:56:35:4800 Rx 1 0x210 s 3 B0 A4 14 
12:56:35:4810 Rx 1 0x153 s 3 E9 C7 98 
12:56:35:4810 Rx 1 0x260 s 2 00 00 
12:56:35:4820 Rx 1 0x247 s 2 22 24 
12:56:35:4850 Rx 1 0x21A s 5 23 50 A0 40 7E 
12:56:35:4870 Rx 1 0x130 s 8 00 80 20 00 BE 7F 29 70 
12:56:35:4870 Rx 1 0x131 s 8 00 00 00 00 EE 80 09 AF 
12:56:35:4880 Rx 1 0x100 s 8 00 00 63 00 10 00 40 E1 
12:56:35:4880 Rx 1 0x242 s 4 7B D4 60 CF 
12:56:35:4890 Rx 1 0x2B0 s 5 20 00 00 07 72 
12:56:35:4900 Rx 1 0x152 s 6 00 00 00 0C 06 29 
12:56:35:4900 Rx 1 0x243 s 2 08 00 
12:56:35:4910 Rx 1 0x613 s 4 D2 BE 8A 04 
12:56:35:4960 Rx 1 0x246 s 4 00 01 07 06 
12:56:35:4970 Rx 1 0x130 s 8 00 80 20 00 BE 7F 2A 57 
12:56:35:4970 Rx 1 0x131 s 8 00 00 00 00 EE 80 0A 88 
12:56:35:4980 Rx 1 0x245 s 4 00 01 07 06 
12:56:35:4980 Rx 1 0x249 s 1 10 
12:56:35:4980 Rx 1 0x4D1 s 7 00 00 00 00 00 00 00 
12:56:35:4990 Rx 1 0x2B0 s 5 20 00 00 07 63 
12:56:35:5000 Rx 1 0x152 s 6 00 00 00 0C 07 34 
12:56:35:5000 Rx 1 0x153 s 3 E9 D7 55 
12:56:35:5010 Rx 1 0x4F0 s 8 03 00 00 40 00 FF FF 4A 
12:56:35:5010 Rx 1 0x0F2 s 6 FF FF FF FF 99 99 
12:56:35:5020 Rx 1 0x254 s 4 1A 11 90 F5 
12:56:35:5050 Rx 1 0x4D3 s 7 00 00 00 00 00 00 00 
12:56:35:5050 Rx 1 0x21A s 5 23 50 A0 50 B3 
12:56:35:5070 Rx 1 0x130 s 8 00 80 20 00 A8 7F 2B 57 
12:56:35:5070 Rx 1 0x131 s 8 00 00 00 00 03 81 0B CC 
12:56:35:5080 Rx 1 0x100 s 8 00 00 63 00 10 00 50 2C 
12:56:35:5080 Rx 1 0x590 s 3 00 01 00 
12:56:35:5080 Rx 1 0x3AA s 6 1E 00 CD FF 40 9C 
12:56:35:5090 Rx 1 0x2B0 s 5 20 00 00 07 14 
12:56:35:5100 Rx 1 0x152 s 6 00 00 00 0C 08 8F 
12:56:35:5130 Rx 1 0x244 s 4 08 00 00 00 
12:56:35:5170 Rx 1 0x130 s 8 00 80 20 00 A8 7F 2C 04 
12:56:35:5170 Rx 1 0x131 s 8 00 00 00 00 03 81 0C 9F 
12:56:35:5190 Rx 1 0x2B0 s 5 20 00 00 07 05 
12:56:35:5200 Rx 1 0x280 s 8 0F 01 FF 00 FD 58 03 B8 
12:56:35:5200 Rx 1 0x152 s 6 00 00 00 0C 09 92 
12:56:35:5210 Rx 1 0x153 s 3 E9 E7 1F 
12:56:35:5210 Rx 1 0x2F0 s 7 00 00 08 99 00 01 28 
12:56:35:5220 Rx 1 0x362 s 8 15 49 24 06 00 10 01 58 
12:56:35:5240 Rx 1 0x21A s 5 23 50 A0 60 F9 
12:56:35:5240 Rx 1 0x37B s 8 00 00 FF FF FF FF FF 0F 
12:56:35:5270 Rx 1 0x130 s 8 00 80 20 00 A8 7F 2D 19 
12:56:35:5270 Rx 1 0x131 s 8 00 00 00 00 03 81 0D 82 
12:56:35:5280 Rx 1 0x100 s 8 00 00 63 00 10 00 60 66 
12:56:35:5290 Rx 1 0x2B0 s 5 20 00 00 07 36 
12:56:35:5300 Rx 1 0x152 s 6 00 00 00 0C 0A B5 
12:56:35:5310 Rx 1 0x150 s 8 00 00 4A 64 00 80 86 00 
12:56:35:5310 Rx 1 0x151 s 3 3C 68 18 
12:56:35:5320 Rx 1 0x155 s 7 FF 7F 00 18 00 70 7E 
12:56:35:5320 Rx 1 0x156 s 7 FF 7F 00 08 E8 73 4D 
12:56:35:5330 Rx 1 0x247 s 2 22 24 
12:56:35:5330 Rx 1 0x298 s 3 F8 3F C7 
12:56:35:5330 Rx 1 0x380 s 8 A2 82 FF 00 00 00 E0 7C 
12:56:35:5340 Rx 1 0x43A s 2 00 00 
12:56:35:5340 Rx 1 0x4CA s 8 FC 03 00 00 8E 0E 0E 2E 
12:56:35:5340 Rx 1 0x4CD s 4 77 77 01 00 
12:56:35:5350 Rx 1 0x4CF s 6 00 00 00 00 00 00 
12:56:35:5350 Rx 1 0x501 s 5 00 00 00 07 07 
12:56:35:5370 Rx 1 0x130 s 8 00 80 20 00 A8 7F 2E 3E 
12:56:35:5370 Rx 1 0x131 s 8 00 00 00 00 03 81 0E A5 
12:56:35:5390 Rx 1 0x2B0 s 5 20 00 00 07 27 
12:56:35:5400 Rx 1 0x152 s 6 00 00 00 0C 0B A8 
12:56:35:5400 Rx 1 0x153 s 3 E9 F7 D2 
12:56:35:5410 Rx 1 0x495 s 1 00 
12:56:35:5410 Rx 1 0x243 s 2 08 00 
12:56:35:5430 Rx 1 0x21A s 5 23 50 A0 70 34 
12:56:35:5460 Rx 1 0x246 s 4 00 01 08 09 
12:56:35:5470 Rx 1 0x130 s 8 00 80 20 00 A8 7F 2F 23 
12:56:35:5470 Rx 1 0x131 s 8 00 00 00 00 03 81 0F B8 
12:56:35:5480 Rx 1 0x100 s 8 00 00 63 00 10 00 70 AB 
12:56:35:5480 Rx 1 0x245 s 4 00 01 08 09 
12:56:35:5480 Rx 1 0x249 s 1 10 
12:56:35:5490 Rx 1 0x2B0 s 5 20 00 00 07 D8 
12:56:35:5500 Rx 1 0x152 s 6 00 00 00 0C 0C FB 
12:56:35:5570 Rx 1 0x130 s 8 00 80 20 00 A8 7F 20 98 
12:56:35:5570 Rx 1 0x131 s 8 00 00 00 00 03 81 00 03 
12:56:35:5580 Rx 1 0x590 s 3 00 01 00 
12:56:35:5590 Rx 1 0x2B0 s 5 20 00 00 07 C9 
12:56:35:5600 Rx 1 0x152 s 6 00 00 00 0C 0D E6 
12:56:35:5600 Rx 1 0x153 s 3 E9 07 AD 
12:56:35:5620 Rx 1 0x21A s 5 23 50 A0 80 4B 
12:56:35:5630 Rx 1 0x244 s 4 08 00 00 00 
12:56:35:5670 Rx 1 0x130 s 8 E8 7F 20 00 BE 7F 21 53 
12:56:35:5670 Rx 1 0x131 s 8 00 00 00 00 03 81 01 1E 
12:56:35:5680 Rx 1 0x100 s 8 00 00 63 00 10 00 80 D4 
12:56:35:5690 Rx 1 0x2B0 s 5 20 00 00 07 FA 
12:56:35:5700 Rx 1 0x280 s 8 0F 01 FF 00 FD 58 03 B8 
12:56:35:5710 Rx 1 0x152 s 6 00 00 00 0C 0E C1 
12:56:35:5710 Rx 1 0x157 s 8 90 00 94 30 66 00 70 2B 
12:56:35:5710 Rx 1 0x23E s 5 55 BC B0 B1 E1 
12:56:35:5720 Rx 1 0x23F s 5 55 BC B0 B1 E1 
12:56:35:5720 Rx 1 0x240 s 5 BC 83 EB CB FF 
12:56:35:5720 Rx 1 0x251 s 3 00 01 01 
12:56:35:5730 Rx 1 0x27D s 8 00 00 00 00 00 00 00 00 
12:56:35:5730 Rx 1 0x2F0 s 7 00 00 08 99 00 01 28 
12:56:35:5740 Rx 1 0x362 s 8 15 49 24 06 00 10 01 58 
12:56:35:5740 Rx 1 0x365 s 6 00 54 00 02 60 7D 
12:56:35:5740 Rx 1 0x4D0 s 2 00 00 
12:56:35:5750 Rx 1 0x532 s 1 00 
12:56:35:5750 Rx 1 0x614 s 1 00 
12:56:35:5750 Rx 1 0x615 s 2 00 00 
12:56:35:5770 Rx 1 0x130 s 8 E8 7F 20 00 BE 7F 22 74 
12:56:35:5770 Rx 1 0x131 s 8 00 00 00 00 03 81 02 39 
12:56:35:5790 Rx 1 0x2B0 s 5 20 00 00 07 EB 
12:56:35:5800 Rx 1 0x152 s 6 00 00 00 0C 0F DC 
12:56:35:5800 Rx 1 0x153 s 3 E9 17 60 
12:56:35:5810 Rx 1 0x210 s 3 B0 B4 04 
12:56:35:5810 Rx 1 0x241 s 5 BC 83 EB CB FF 
12:56:35:5810 Rx 1 0x21A s 5 23 50 A0 90 86 
12:56:35:5820 Rx 1 0x260 s 2 00 00 
12:56:35:5820 Rx 1 0x247 s 2 22 24 
12:56:35:5870 Rx 1 0x130 s 8 E8 7F 20 00 BE 7F 23 69 
12:56:35:5870 Rx 1 0x131 s 8 00 00 00 00 EE 80 03 7D 
12:56:35:5880 Rx 1 0x100 s 8 00 00 63 00 10 00 90 19 
12:56:35:5880 Rx 1 0x242 s 4 7B D4 70 DF 
12:56:35:5890 Rx 1 0x2B0 s 5 20 00 00 07 9C 
12:56:35:5900 Rx 1 0x152 s 6 00 00 00 0C 00 67 
12:56:35:5900 Rx 1 0x243 s 2 08 00 
12:56:35:5910 Rx 1 0x613 s 4 D2 BE 8A 04 
12:56:35:5960 Rx 1 0x246 s 4 00 01 09 08 
12:56:35:5970 Rx 1 0x130 s 8 E8 7F 20 00 BE 7F 24 3A 
12:56:35:5970 Rx 1 0x131 s 8 00 00 00 00 EE 80 04 2E 
12:56:35:5980 Rx 1 0x245 s 4 00 01 09 08 
12:56:35:5980 Rx 1 0x249 s 1 10 
12:56:35:5990 Rx 1 0x2B0 s 5 20 00 00 07 8D 
12:56:35:6000 Rx 1 0x152 s 6 00 00 00 0C 01 7A 
12:56:35:6000 Rx 1 0x153 s 3 E9 27 2A 
12:56:35:6010 Rx 1 0x4F0 s 8 10 00 00 40 00 FF FF 4A 
12:56:35:6010 Rx 1 0x0F2 s 6 FF FF FF FF AA AA 
12:56:35:6020 Rx 1 0x21A s 5 23 50 A0 A0 CC 
12:56:35:6020 Rx 1 0x254 s 4 1A 11 A0 BF 
12:56:35:6070 Rx 1 0x130 s 8 E8 7F 20 00 BE 7F 25 27 
12:56:35:6070 Rx 1 0x131 s 8 00 00 00 00 EE 80 05 33 
12:56:35:6080 Rx 1 0x100 s 8 00 00 63 00 10 00 A0 53 
12:56:35:6080 Rx 1 0x590 s 3 00 01 00 
12:56:35:6090 Rx 1 0x2B0 s 5 20 00 00 07 BE 
12:56:35:6100 Rx 1 0x152 s 6 00 00 00 0C 02 5D 
12:56:35:6130 Rx 1 0x244 s 4 08 00 00 00 
12:56:35:6170 Rx 1 0x130 s 8 E8 7F 20 00 BE 7F 26 00 
12:56:35:6170 Rx 1 0x131 s 8 00 00 00 00 EE 80 06 14 
12:56:35:6180 Rx 1 0x3AA s 6 1E 00 CD FF 40 9C 
12:56:35:6190 Rx 1 0x2B0 s 5 20 00 00 07 AF 
12:56:35:6200 Rx 1 0x280 s 8 0F 01 FF 00 FD 58 03 B8 
12:56:35:6200 Rx 1 0x152 s 6 00 00 00 0C 03 40 
12:56:35:6210 Rx 1 0x153 s 3 E9 37 E7 
12:56:35:6210 Rx 1 0x21A s 5 23 50 A0 B0 01 
12:56:35:6220 Rx 1 0x2F0 s 7 00 00 08 99 00 01 28 
12:56:35:6220 Rx 1 0x362 s 8 15 49 24 06 00 10 01 58 
12:56:35:6230 Rx 1 0x37B s 8 00 00 FF FF FF FF FF 00 
12:56:35:6270 Rx 1 0x130 s 8 E8 7F 20 00 A8 7F 27 00 
12:56:35:6270 Rx 1 0x131 s 8 00 00 00 00 EE 80 07 09 
12:56:35:6280 Rx 1 0x100 s 8 00 00 63 00 10 00 B0 9E 
12:56:35:6280 Rx 1 0x3C1 s 5 00 00 00 B0 35 
12:56:35:6280 Rx 1 0x50E s 8 FF 03 00 00 00 06 00 00 
12:56:35:6290 Rx 1 0x2B0 s 5 20 00 00 07 50 
12:56:35:6290 Rx 1 0x510 s 6 FF FF 00 00 FF FF 
12:56:35:6300 Rx 1 0x152 s 6 00 00 00 0C 04 13 
12:56:35:6310 Rx 1 0x151 s 3 3C 68 18 
12:56:35:6310 Rx 1 0x150 s 8 00 00 4A 64 00 80 86 00 
12:56:35:6320 Rx 1 0x155 s 7 FF 7F 00 18 00 80 01 
12:56:35:6320 Rx 1 0x156 s 7 FF 7F 00 08 E8 83 32 
12:56:35:6330 Rx 1 0x247 s 2 22 24 
12:56:35:6330 Rx 1 0x310 s 3 00 24 24 
12:56:35:6340 Rx 1 0x4CF s 6 00 00 00 00 00 00 
12:56:35:6370 Rx 1 0x130 s 8 E8 7F 20 00 A8 7F 28 BB 
12:56:35:6370 Rx 1 0x131 s 8 00 00 00 00 EE 80 08 B2 
12:56:35:6390 Rx 1 0x2B0 s 5 20 00 00 07 41 
12:56:35:6400 Rx 1 0x21A s 5 23 50 A0 C0 58 
12:56:35:6400 Rx 1 0x152 s 6 00 00 00 0C 05 0E 
12:56:35:6410 Rx 1 0x153 s 3 E9 47 BE 
12:56:35:6410 Rx 1 0x243 s 2 08 00 
12:56:35:6460 Rx 1 0x246 s 4 00 01 0A 0B 
12:56:35:6470 Rx 1 0x130 s 8 E8 7F 20 00 A8 7F 29 A6 
12:56:35:6470 Rx 1 0x131 s 8 00 00 00 00 03 81 09 F6 
12:56:35:6480 Rx 1 0x100 s 8 00 00 63 00 10 00 C0 C7 
12:56:35:6480 Rx 1 0x245 s 4 00 01 0A 0B 
12:56:35:6480 Rx 1 0x249 s 1 10 
12:56:35:6490 Rx 1 0x2B0 s 5 20 00 00 07 72 
12:56:35:6500 Rx 1 0x152 s 6 00 00 00 0C 06 29 
12:56:35:6570 Rx 1 0x130 s 8 E8 7F 20 00 A8 7F 2A 81 
12:56:35:6570 Rx 1 0x131 s 8 00 00 00 00 03 81 0A D1 
12:56:35:6580 Rx 1 0x590 s 3 00 01 00 
12:56:35:6590 Rx 1 0x2B0 s 5 20 00 00 07 63 
12:56:35:6590 Rx 1 0x21A s 5 23 50 A0 D0 95 
12:56:35:6600 Rx 1 0x152 s 6 00 00 00 0C 07 34 
12:56:35:6600 Rx 1 0x153 s 3 E9 57 73 
12:56:35:6630 Rx 1 0x244 s 4 08 00 00 00 
12:56:35:6670 Rx 1 0x130 s 8 E8 7F 20 00 BE 7F 2B 81 
12:56:35:6670 Rx 1 0x131 s 8 00 00 00 00 EE 80 0B 95 
12:56:35:6680 Rx 1 0x100 s 8 00 00 63 00 10 00 D0 0A 
12:56:35:6680 Rx 1 0x240 s 5 BC 83 EB CB FF 
12:56:35:6690 Rx 1 0x2B0 s 5 20 00 00 07 14 
12:56:35:6700 Rx 1 0x280 s 8 0F 01 FF 00 FD 58 03 B8 
12:56:35:6710 Rx 1 0x152 s 6 00 00 00 0C 08 8F 
12:56:35:6710 Rx 1 0x157 s 8 90 00 94 40 9D 00 70 2B 
12:56:35:6710 Rx 1 0x23E s 5 55 BC B0 B1 E1 
12:56:35:6720 Rx 1 0x23F s 5 55 BC B0 B1 E1 
12:56:35:6720 Rx 1 0x251 s 3 00 02 02 
12:56:35:6720 Rx 1 0x2F0 s 7 00 00 08 99 00 01 28 
12:56:35:6730 Rx 1 0x362 s 8 15 49 24 06 00 10 01 58 
12:56:35:6730 Rx 1 0x614 s 1 00 
12:56:35:6730 Rx 1 0x615 s 2 00 00 
12:56:35:6770 Rx 1 0x130 s 8 E8 7F 20 00 BE 7F 2C D2 
12:56:35:6770 Rx 1 0x131 s 8 00 00 00 00 EE 80 0C C6 
12:56:35:6780 Rx 1 0x21A s 5 23 50 A0 E0 DF 
12:56:35:6780 Rx 1 0x241 s 5 BC 83 EB CB FF 
12:56:35:6790 Rx 1 0x2B0 s 5 20 00 00 07 05 
12:56:35:6800 Rx 1 0x152 s 6 00 00 00 0C 09 92 
12:56:35:6800 Rx 1 0x153 s 3 E9 67 39 
12:56:35:6810 Rx 1 0x210 s 3 B0 C4 74 
12:56:35:6810 Rx 1 0x260 s 2 00 00 
12:56:35:6820 Rx 1 0x247 s 2 22 24 
12:56:35:6870 Rx 1 0x130 s 8 E8 7F 20 00 A8 7F 2D D2 
12:56:35:6870 Rx 1 0x131 s 8 00 00 00 00 EE 80 0D DB 
12:56:35:6880 Rx 1 0x100 s 8 00 00 63 00 10 00 E0 40 
12:56:35:6880 Rx 1 0x242 s 4 7B D4 80 2F 
12:56:35:6890 Rx 1 0x2B0 s 5 20 00 00 07 36 
12:56:35:6900 Rx 1 0x152 s 6 00 00 00 0C 0A B5 
12:56:35:6900 Rx 1 0x613 s 4 D2 BE 8A 04 
12:56:35:6910 Rx 1 0x243 s 2 08 00 
12:56:35:6960 Rx 1 0x246 s 4 00 01 0B 0A 
12:56:35:6970 Rx 1 0x130 s 8 E8 7F 20 00 A8 7F 2E F5 
12:56:35:6970 Rx 1 0x131 s 8 00 00 00 00 EE 80 0E FC 
12:56:35:6980 Rx 1 0x21A s 5 23 50 A0 F0 12 
12:56:35:6980 Rx 1 0x245 s 4 00 01 0B 0A 
12:56:35:6980 Rx 1 0x249 s 1 10 
12:56:35:6990 Rx 1 0x2B0 s 5 20 00 00 07 27 
12:56:35:7000 Rx 1 0x153 s 3 E9 77 F4 
12:56:35:7000 Rx 1 0x152 s 6 00 00 00 0C 0B A8 
12:56:35:7010 Rx 1 0x4F0 s 8 13 00 00 40 00 FF FF 4A 
12:56:35:7010 Rx 1 0x0F2 s 6 FF FF FF FF BB BB 
12:56:35:7020 Rx 1 0x254 s 4 1A 11 B0 72 
12:56:35:7070 Rx 1 0x130 s 8 E8 7F 20 00 BE 7F 2F F5 
12:56:35:7070 Rx 1 0x131 s 8 00 00 00 00 03 81 0F B8 
12:56:35:7080 Rx 1 0x100 s 8 00 00 63 00 10 00 F0 8D 
12:56:35:7080 Rx 1 0x590 s 3 00 01 00 
12:56:35:7090 Rx 1 0x2B0 s 5 20 00 00 07 D8 
12:56:35:7100 Rx 1 0x152 s 6 00 00 00 0C 0C FB 
12:56:35:7130 Rx 1 0x244 s 4 08 00 00 00 
12:56:35:7170 Rx 1 0x130 s 8 E8 7F 20 00 BE 7F 20 4E 
12:56:35:7170 Rx 1 0x131 s 8 00 00 00 00 03 81 00 03 
12:56:35:7180 Rx 1 0x21A s 5 23 50 A0 00 6D 
12:56:35:7190 Rx 1 0x2B0 s 5 20 00 00 07 C9 
12:56:35:7200 Rx 1 0x280 s 8 0F 01 FF 00 FD 58 03 B8 
12:56:35:7210 Rx 1 0x152 s 6 00 00 00 0C 0D E6 
12:56:35:7210 Rx 1 0x153 s 3 E9 87 8B 
12:56:35:7210 Rx 1 0x2F0 s 7 00 00 08 99 00 01 28 
12:56:35:7220 Rx 1 0x362 s 8 15 49 24 06 00 10 01 58 
12:56:35:7220 Rx 1 0x37B s 8 00 00 FF FF FF FF FF 01 
12:56:35:7270 Rx 1 0x130 s 8 E8 7F 20 00 A8 7F 21 4E 
12:56:35:7270 Rx 1 0x131 s 8 00 00 00 00 EE 80 01 47 
12:56:35:7280 Rx 1 0x100 s 8 00 00 63 00 10 00 00 F2 
12:56:35:7280 Rx 1 0x3AA s 6 1E 00 CD FF 40 9C 
12:56:35:7290 Rx 1 0x2B0 s 5 20 00 00 07 FA 
12:56:35:7300 Rx 1 0x152 s 6 00 00 00 0C 0E C1 
12:56:35:7310 Rx 1 0x150 s 8 00 00 4A 64 00 80 86 00 
12:56:35:7310 Rx 1 0x151 s 3 3C 68 18 
12:56:35:7320 Rx 1 0x155 s 7 FF 7F 00 18 00 90 CC 
12:56:35:7320 Rx 1 0x156 s 7 FF 7F 00 08 E8 93 FF 
12:56:35:7320 Rx 1 0x247 s 2 22 24 
12:56:35:7330 Rx 1 0x298 s 3 F8 4F B7 
12:56:35:7330 Rx 1 0x4CF s 6 00 00 00 00 00 00 
12:56:35:7370 Rx 1 0x130 s 8 E8 7F 20 00 A8 7F 22 69 
12:56:35:7370 Rx 1 0x131 s 8 00 00 00 00 EE 80 02 60 
12:56:35:7370 Rx 1 0x21A s 5 23 50 A0 10 A0 
12:56:35:7390 Rx 1 0x2B0 s 5 20 00 00 07 EB 
12:56:35:7400 Rx 1 0x152 s 6 00 00 00 0C 0F DC 
12:56:35:7400 Rx 1 0x153 s 3 E9 97 46 
12:56:35:7410 Rx 1 0x243 s 2 08 00 
12:56:35:7460 Rx 1 0x246 s 4 00 01 0C 0D 
12:56:35:7470 Rx 1 0x130 s 8 E8 7F 20 00 BE 7F 23 69 
12:56:35:7470 Rx 1 0x131 s 8 00 00 00 00 EE 80 03 7D 
12:56:35:7480 Rx 1 0x100 s 8 00 00 63 00 10 00 10 3F 
12:56:35:7480 Rx 1 0x245 s 4 00 01 0C 0D 
12:56:35:7480 Rx 1 0x249 s 1 10 
12:56:35:7490 Rx 1 0x4D1 s 7 00 00 00 00 00 00 00 
12:56:35:7490 Rx 1 0x2B0 s 5 20 00 00 07 9C 
12:56:35:7500 Rx 1 0x152 s 6 00 00 00 0C 00 67 
12:56:35:7550 Rx 1 0x4D3 s 7 00 00 00 00 00 00 00 
12:56:35:7560 Rx 1 0x21A s 5 23 50 A0 20 EA 
12:56:35:7570 Rx 1 0x130 s 8 E8 7F 20 00 BE 7F 24 3A 
12:56:35:7570 Rx 1 0x131 s 8 00 00 00 00 EE 80 04 2E 
12:56:35:7580 Rx 1 0x590 s 3 00 01 00 
12:56:35:7590 Rx 1 0x2B0 s 5 20 00 00 07 8D 
12:56:35:7600 Rx 1 0x152 s 6 00 00 00 0C 01 7A 
12:56:35:7600 Rx 1 0x153 s 3 E9 A7 0C 
12:56:35:7630 Rx 1 0x244 s 4 08 00 00 00 
12:56:35:7670 Rx 1 0x130 s 8 00 80 20 00 A8 7F 25 F1 
12:56:35:7670 Rx 1 0x131 s 8 00 00 00 00 03 81 05 6A 
12:56:35:7680 Rx 1 0x100 s 8 00 00 63 00 10 00 20 75 
12:56:35:7690 Rx 1 0x2B0 s 5 20 00 00 07 BE 
12:56:35:7700 Rx 1 0x280 s 8 0F 01 FF 00 FD 58 03 B8 
12:56:35:7710 Rx 1 0x152 s 6 00 00 00 0C 02 5D 
12:56:35:7710 Rx 1 0x157 s 8 90 00 94 50 B8 00 70 2B 
12:56:35:7710 Rx 1 0x23E s 5 55 BC B0 B1 E1 
12:56:35:7720 Rx 1 0x23F s 5 55 BC B0 B1 E1 
12:56:35:7720 Rx 1 0x251 s 3 00 03 03 
12:56:35:7720 Rx 1 0x2F0 s 7 00 00 08 99 00 01 28 
12:56:35:7730 Rx 1 0x362 s 8 15 49 24 06 00 10 01 58 
12:56:35:7730 Rx 1 0x614 s 1 00 
12:56:35:7730 Rx 1 0x615 s 2 00 00 
12:56:35:7750 Rx 1 0x240 s 5 BC 83 EB CB FF 
12:56:35:7760 Rx 1 0x21A s 5 23 50 A0 30 27 
12:56:35:7770 Rx 1 0x130 s 8 00 80 20 00 A8 7F 26 D6 
12:56:35:7770 Rx 1 0x131 s 8 00 00 00 00 03 81 06 4D 
12:56:35:7790 Rx 1 0x2B0 s 5 20 00 00 07 AF 
12:56:35:7800 Rx 1 0x152 s 6 00 00 00 0C 03 40 
12:56:35:7800 Rx 1 0x153 s 3 E9 B7 C1 
12:56:35:7810 Rx 1 0x210 s 3 B0 D4 64 
12:56:35:7810 Rx 1 0x260 s 2 00 00 
12:56:35:7820 Rx 1 0x247 s 2 22 24 
12:56:35:7830 Rx 1 0x380 s 8 A2 82 FF 00 00 00 F0 6C 
12:56:35:7840 Rx 1 0x43A s 2 00 00 
12:56:35:7840 Rx 1 0x4CA s 8 FC 03 00 00 8E 0E 0E 2E 
12:56:35:7840 Rx 1 0x241 s 5 BC 83 EB CB FF 
12:56:35:7850 Rx 1 0x4CD s 4 77 77 01 00 
12:56:35:7870 Rx 1 0x130 s 8 E8 7F 20 00 BE 7F 27 1D 
12:56:35:7870 Rx 1 0x131 s 8 00 00 00 00 EE 80 07 09 
12:56:35:7880 Rx 1 0x100 s 8 00 00 63 00 10 00 30 B8 
12:56:35:7880 Rx 1 0x242 s 4 7B D4 90 3F 
12:56:35:7890 Rx 1 0x2B0 s 5 20 00 00 07 50 
12:56:35:7900 Rx 1 0x152 s 6 00 00 00 0C 04 13 
12:56:35:7900 Rx 1 0x243 s 2 08 00 
12:56:35:7910 Rx 1 0x613 s 4 D2 BE 8A 04 
12:56:35:7940 Rx 1 0x21A s 5 23 50 A0 40 7E 
12:56:35:7960 Rx 1 0x246 s 4 00 01 0D 0C 
12:56:35:7970 Rx 1 0x130 s 8 E8 7F 20 00 BE 7F 28 A6 
12:56:35:7970 Rx 1 0x131 s 8 00 00 00 00 EE 80 08 B2 
12:56:35:7980 Rx 1 0x245 s 4 00 01 0D 0C 
12:56:35:7980 Rx 1 0x249 s 1 10 
12:56:35:7990 Rx 1 0x2B0 s 5 20 00 00 07 41 
12:56:35:8000 Rx 1 0x152 s 6 00 00 00 0C 05 0E 
12:56:35:8010 Rx 1 0x153 s 3 E9 C7 98 
12:56:35:8010 Rx 1 0x4F0 s 8 00 00 00 40 00 FF FF 4A 
12:56:35:8010 Rx 1 0x0F2 s 6 FF FF FF FF CC CC 
12:56:35:8020 Rx 1 0x254 s 4 1A 11 C0 2B 
12:56:35:8070 Rx 1 0x130 s 8 E8 7F 20 00 A8 7F 29 A6 
12:56:35:8070 Rx 1 0x131 s 8 00 00 00 00 03 81 09 F6 
12:56:35:8080 Rx 1 0x100 s 8 00 00 63 00 10 00 40 E1 
12:56:35:8090 Rx 1 0x590 s 3 00 01 00 
12:56:35:8090 Rx 1 0x2B0 s 5 20 00 00 07 72 
12:56:35:8100 Rx 1 0x152 s 6 00 00 00 0C 06 29 
12:56:35:8130 Rx 1 0x244 s 4 08 00 00 00 
12:56:35:8140 Rx 1 0x21A s 5 23 50 A0 50 B3 
12:56:35:8170 Rx 1 0x130 s 8 E8 7F 20 00 A8 7F 2A 81 
12:56:35:8170 Rx 1 0x131 s 8 00 00 00 00 03 81 0A D1 
12:56:35:8190 Rx 1 0x2B0 s 5 20 00 00 07 63 
12:56:35:8200 Rx 1 0x280 s 8 0F 01 FF 00 FD 58 03 B8 
12:56:35:8210 Rx 1 0x152 s 6 00 00 00 0C 07 34 
12:56:35:8210 Rx 1 0x153 s 3 E9 D7 55 
12:56:35:8210 Rx 1 0x27D s 8 00 00 00 00 00 00 00 00 
12:56:35:8220 Rx 1 0x2F0 s 7 00 00 08 99 00 01 28 
12:56:35:8220 Rx 1 0x362 s 8 15 49 24 06 00 10 01 58 
12:56:35:8230 Rx 1 0x365 s 6 00 54 00 02 60 7D 
12:56:35:8230 Rx 1 0x37B s 8 00 00 FF FF FF FF FF 02 
12:56:35:8230 Rx 1 0x4D0 s 2 00 00 
12:56:35:8270 Rx 1 0x130 s 8 E8 7F 20 00 BE 7F 2B 81 
12:56:35:8270 Rx 1 0x131 s 8 00 00 00 00 EE 80 0B 95 
12:56:35:8280 Rx 1 0x100 s 8 00 00 63 00 10 00 50 2C 
12:56:35:8290 Rx 1 0x2B0 s 5 20 00 00 07 14 
12:56:35:8300 Rx 1 0x152 s 6 00 00 00 0C 08 8F 
12:56:35:8310 Rx 1 0x151 s 3 3C 68 18 
12:56:35:8310 Rx 1 0x150 s 8 00 00 4A 64 00 80 86 00 
12:56:35:8320 Rx 1 0x155 s 7 FF 7F 00 18 00 A0 86 
12:56:35:8320 Rx 1 0x156 s 7 FF 7F 00 08 E8 A3 B5 
12:56:35:8320 Rx 1 0x247 s 2 22 24 
12:56:35:8330 Rx 1 0x310 s 3 00 34 34 
12:56:35:8330 Rx 1 0x21A s 5 23 50 A0 60 F9 
12:56:35:8340 Rx 1 0x4CF s 6 00 00 00 00 00 00 
12:56:35:8370 Rx 1 0x130 s 8 E8 7F 20 00 BE 7F 2C D2 
12:56:35:8370 Rx 1 0x131 s 8 00 00 00 00 EE 80 0C C6 
12:56:35:8380 Rx 1 0x3AA s 6 1E 00 CD FF 40 9C 
12:56:35:8390 Rx 1 0x2B0 s 5 20 00 00 07 05 
12:56:35:8400 Rx 1 0x152 s 6 00 00 00 0C 09 92 
12:56:35:8400 Rx 1 0x153 s 3 E9 E7 1F 
12:56:35:8410 Rx 1 0x243 s 2 08 00 
12:56:35:8460 Rx 1 0x246 s 4 00 01 0E 0F 
12:56:35:8470 Rx 1 0x130 s 8 00 80 20 00 BE 7F 2D 04 
12:56:35:8470 Rx 1 0x131 s 8 00 00 00 00 03 81 0D 82 
12:56:35:8480 Rx 1 0x100 s 8 00 00 63 00 10 00 60 66 
12:56:35:8480 Rx 1 0x245 s 4 00 01 0E 0F 
12:56:35:8480 Rx 1 0x249 s 1 10 
12:56:35:8490 Rx 1 0x2B0 s 5 20 00 00 07 36 
12:56:35:8500 Rx 1 0x152 s 6 00 00 00 0C 0A B5 
12:56:35:8530 Rx 1 0x21A s 5 23 50 A0 70 34 
12:56:35:8570 Rx 1 0x130 s 8 00 80 20 00 BE 7F 2E 23 
12:56:35:8570 Rx 1 0x131 s 8 00 00 00 00 03 81 0E A5 
12:56:35:8580 Rx 1 0x590 s 3 00 01 00 
12:56:35:8590 Rx 1 0x2B0 s 5 20 00 00 07 27 
12:56:35:8600 Rx 1 0x152 s 6 00 00 00 0C 0B A8 
12:56:35:8600 Rx 1 0x153 s 3 E9 F7 D2 
12:56:35:8630 Rx 1 0x244 s 4 08 00 00 00 
12:56:35:8670 Rx 1 0x130 s 8 E8 7F 20 00 A8 7F 2F E8 
12:56:35:8670 Rx 1 0x131 s 8 00 00 00 00 03 81 0F B8 
12:56:35:8680 Rx 1 0x100 s 8 00 00 63 00 10 00 70 AB 
12:56:35:8680 Rx 1 0x240 s 5 BC 83 EB CB FF 
12:56:35:8690 Rx 1 0x2B0 s 5 20 00 00 07 D8 
12:56:35:8700 Rx 1 0x280 s 8 0F 01 FF 00 FD 58 03 B8 
12:56:35:8710 Rx 1 0x152 s 6 00 00 00 0C 0C FB 
12:56:35:8710 Rx 1 0x157 s 8 90 00 94 60 D7 00 70 2B 
12:56:35:8710 Rx 1 0x21A s 5 23 50 A0 80 4B 
12:56:35:8720 Rx 1 0x23E s 5 55 BC B0 B1 E1 
12:56:35:8720 Rx 1 0x23F s 5 55 BC B0 B1 E1 
12:56:35:8720 Rx 1 0x251 s 3 00 04 04 
12:56:35:8730 Rx 1 0x2F0 s 7 00 00 08 99 00 01 28 
12:56:35:8730 Rx 1 0x362 s 8 15 49 24 06 00 10 01 58 
12:56:35:8740 Rx 1 0x614 s 1 00 
12:56:35:8740 Rx 1 0x615 s 2 00 00 
12:56:35:8770 Rx 1 0x130 s 8 E8 7F 20 00 A8 7F 20 53 
12:56:35:8770 Rx 1 0x131 s 8 00 00 00 00 03 81 00 03 
12:56:35:8780 Rx 1 0x241 s 5 BC 83 EB CB FF 
12:56:35:8790 Rx 1 0x2B0 s 5 20 00 00 07 C9 
12:56:35:8800 Rx 1 0x152 s 6 00 00 00 0C 0D E6 
12:56:35:8810 Rx 1 0x153 s 3 E9 07 AD 
12:56:35:8810 Rx 1 0x210 s 3 B0 E4 54 
12:56:35:8810 Rx 1 0x260 s 2 00 00 
12:56:35:8820 Rx 1 0x247 s 2 22 24 
12:56:35:8870 Rx 1 0x130 s 8 00 80 20 00 A8 7F 21 85 
12:56:35:8870 Rx 1 0x131 s 8 00 00 00 00 03 81 01 1E 
12:56:35:8880 Rx 1 0x100 s 8 00 00 63 00 10 00 80 D4 
12:56:35:8880 Rx 1 0x242 s 4 7B D4 A0 0F 
12:56:35:8890 Rx 1 0x2B0 s 5 20 00 00 07 FA 
12:56:35:8900 Rx 1 0x152 s 6 00 00 00 0C 0E C1 
12:56:35:8900 Rx 1 0x613 s 4 D2 BE 8A 04 
12:56:35:8910 Rx 1 0x21A s 5 23 50 A0 90 86 
12:56:35:8910 Rx 1 0x243 s 2 08 00 
12:56:35:8970 Rx 1 0x130 s 8 00 80 20 00 A8 7F 22 A2 
12:56:35:8970 Rx 1 0x131 s 8 00 00 00 00 03 81 02 39 
12:56:35:8970 Rx 1 0x246 s 4 00 01 0F 0E 
12:56:35:8980 Rx 1 0x249 s 1 10 
12:56:35:8980 Rx 1 0x245 s 4 00 01 0F 0E 
12:56:35:8990 Rx 1 0x2B0 s 5 20 00 00 07 EB 
12:56:35:9000 Rx 1 0x152 s 6 00 00 00 0C 0F DC 
12:56:35:9010 Rx 1 0x153 s 3 E9 17 60 
12:56:35:9010 Rx 1 0x4F0 s 8 03 00 00 40 00 FF FF 4A 
12:56:35:9010 Rx 1 0x0F2 s 6 FF FF FF FF DD DD 
12:56:35:9020 Rx 1 0x254 s 4 1A 11 D0 E6 
12:56:35:9070 Rx 1 0x130 s 8 00 80 20 00 BE 7F 23 A2 
12:56:35:9070 Rx 1 0x131 s 8 00 00 00 00 19 81 03 33 
12:56:35:9080 Rx 1 0x100 s 8 00 00 63 00 10 00 90 19 
12:56:35:9080 Rx 1 0x590 s 3 00 01 00 
12:56:35:9090 Rx 1 0x2B0 s 5 20 00 00 07 9C 
12:56:35:9100 Rx 1 0x152 s 6 00 00 00 0C 00 67 
12:56:35:9100 Rx 1 0x21A s 5 23 50 A0 A0 CC 
12:56:35:9130 Rx 1 0x244 s 4 08 00 00 00 
12:56:35:9170 Rx 1 0x130 s 8 00 80 20 00 BE 7F 24 F1 
12:56:35:9170 Rx 1 0x131 s 8 00 00 00 00 19 81 04 60 
12:56:35:9190 Rx 1 0x2B0 s 5 20 00 00 07 8D 
12:56:35:9200 Rx 1 0x280 s 8 0F 01 FF 00 FD 58 03 B8 
12:56:35:9210 Rx 1 0x152 s 6 00 00 00 0C 01 7A 
12:56:35:9210 Rx 1 0x153 s 3 E9 27 2A 
12:56:35:9210 Rx 1 0x2F0 s 7 00 00 08 99 00 01 28 
12:56:35:9220 Rx 1 0x362 s 8 15 49 24 06 00 10 01 58 
12:56:35:9220 Rx 1 0x37B s 8 00 00 FF FF FF FF FF 03 
12:56:35:9270 Rx 1 0x130 s 8 00 80 20 00 A8 7F 25 F1 
12:56:35:9270 Rx 1 0x131 s 8 00 00 00 00 03 81 05 6A 
12:56:35:9280 Rx 1 0x100 s 8 00 00 63 00 10 00 A0 53 
12:56:35:9290 Rx 1 0x2B0 s 5 20 00 00 07 BE 
12:56:35:9300 Rx 1 0x152 s 6 00 00 00 0C 02 5D 
12:56:35:9310 Rx 1 0x21A s 5 23 50 A0 B0 01 
12:56:35:9310 Rx 1 0x150 s 8 00 00 4A 64 00 80 86 00 
12:56:35:9310 Rx 1 0x151 s 3 3C 68 18 
12:56:35:9320 Rx 1 0x155 s 7 FF 7F 00 18 00 B0 4B 
12:56:35:9320 Rx 1 0x156 s 7 FF 7F 00 08 E8 B3 78 
12:56:35:9320 Rx 1 0x247 s 2 22 24 
12:56:35:9330 Rx 1 0x298 s 3 F8 5F A7 
12:56:35:9330 Rx 1 0x4CF s 6 00 00 00 00 00 00 
12:56:35:9370 Rx 1 0x130 s 8 00 80 20 00 A8 7F 26 D6 
12:56:35:9370 Rx 1 0x131 s 8 00 00 00 00 03 81 06 4D 
12:56:35:9390 Rx 1 0x2B0 s 5 20 00 00 07 AF 
12:56:35:9400 Rx 1 0x152 s 6 00 00 00 0C 03 40 
12:56:35:9400 Rx 1 0x153 s 3 E9 37 E7 
12:56:35:9410 Rx 1 0x243 s 2 08 00 
12:56:35:9460 Rx 1 0x246 s 4 00 01 00 01 
12:56:35:9470 Rx 1 0x130 s 8 E8 7F 20 00 BE 7F 27 1D 
12:56:35:9470 Rx 1 0x131 s 8 00 00 00 00 03 81 07 50 
12:56:35:9480 Rx 1 0x100 s 8 00 00 63 00 10 00 B0 9E 
12:56:35:9480 Rx 1 0x245 s 4 00 01 00 01 
12:56:35:9480 Rx 1 0x249 s 1 10 
12:56:35:9490 Rx 1 0x3AA s 6 1E 00 CD FF 40 9C 
12:56:35:9490 Rx 1 0x2B0 s 5 20 00 00 07 50 
12:56:35:9490 Rx 1 0x21A s 5 23 50 A0 C0 58 
12:56:35:9500 Rx 1 0x152 s 6 00 00 00 0C 04 13 
12:56:35:9570 Rx 1 0x130 s 8 E8 7F 20 00 BE 7F 28 A6 
12:56:35:9570 Rx 1 0x131 s 8 00 00 00 00 03 81 08 EB 
12:56:35:9580 Rx 1 0x590 s 3 00 01 00 
12:56:35:9590 Rx 1 0x2B0 s 5 20 00 00 07 41 
12:56:35:9600 Rx 1 0x152 s 6 00 00 00 0C 05 0E 
12:56:35:9600 Rx 1 0x153 s 3 E9 47 BE 
12:56:35:9630 Rx 1 0x244 s 4 08 00 00 00 
12:56:35:9670 Rx 1 0x130 s 8 E8 7F 20 00 BE 7F 29 BB 
12:56:35:9670 Rx 1 0x131 s 8 00 00 00 00 EE 80 09 AF 
12:56:35:9680 Rx 1 0x100 s 8 00 00 63 00 10 00 C0 C7 
12:56:35:9690 Rx 1 0x21A s 5 23 50 A0 D0 95 
12:56:35:9690 Rx 1 0x2B0 s 5 20 00 00 07 72 
12:56:35:9700 Rx 1 0x280 s 8 0F 01 FF 00 FD 58 03 B8 
12:56:35:9700 Rx 1 0x152 s 6 00 00 00 0C 06 29 
12:56:35:9710 Rx 1 0x157 s 8 90 00 94 70 F2 00 70 2B 
12:56:35:9710 Rx 1 0x23E s 5 55 BC B0 B1 E1 
12:56:35:9720 Rx 1 0x23F s 5 55 BC B0 B1 E1 
12:56:35:9720 Rx 1 0x251 s 3 00 05 05 
12:56:35:9720 Rx 1 0x2F0 s 7 00 00 08 99 00 01 28 
12:56:35:9730 Rx 1 0x362 s 8 15 49 24 06 00 10 01 58 
12:56:35:9730 Rx 1 0x614 s 1 00 
12:56:35:9730 Rx 1 0x615 s 2 00 00 
12:56:35:9760 Rx 1 0x240 s 5 BC 83 EB CB FF 
12:56:35:9770 Rx 1 0x130 s 8 E8 7F 20 00 BE 7F 2A 9C 
12:56:35:9770 Rx 1 0x131 s 8 00 00 00 00 EE 80 0A 88 
12:56:35:9790 Rx 1 0x2B0 s 5 20 00 00 07 63 
12:56:35:9800 Rx 1 0x153 s 3 E9 57 73 
12:56:35:9800 Rx 1 0x152 s 6 00 00 00 0C 07 34 
12:56:35:9810 Rx 1 0x210 s 3 B0 F4 44 
12:56:35:9810 Rx 1 0x260 s 2 00 00 
12:56:35:9820 Rx 1 0x247 s 2 22 24 
12:56:35:9850 Rx 1 0x241 s 5 BC 83 EB CB FF 
12:56:35:9870 Rx 1 0x130 s 8 00 80 20 00 A8 7F 2B 57 
12:56:35:9870 Rx 1 0x131 s 8 00 00 00 00 EE 80 0B 95 
12:56:35:9880 Rx 1 0x100 s 8 00 00 63 00 10 00 D0 0A 
12:56:35:9880 Rx 1 0x21A s 5 23 50 A0 E0 DF 
12:56:35:9880 Rx 1 0x242 s 4 7B D4 B0 1F 
12:56:35:9890 Rx 1 0x2B0 s 5 20 00 00 07 14 
12:56:35:9900 Rx 1 0x613 s 4 D2 BE 8A 04 
12:56:35:9910 Rx 1 0x152 s 6 00 00 00 0C 08 8F 
12:56:35:9910 Rx 1 0x243 s 2 08 00 
12:56:35:9960 Rx 1 0x246 s 4 00 01 01 00 
12:56:35:9970 Rx 1 0x130 s 8 00 80 20 00 A8 7F 2C 04 
12:56:35:9970 Rx 1 0x131 s 8 00 00 00 00 EE 80 0C C6 
12:56:35:9980 Rx 1 0x245 s 4 00 01 01 00 
12:56:35:9980 Rx 1 0x249 s 1 10 
12:56:35:9980 Rx 1 0x4D1 s 7 00 00 00 00 00 00 00 
12:56:35:9990 Rx 1 0x2B0 s 5 20 00 00 07 05 
12:56:36:0000 Rx 1 0x152 s 6 00 00 00 0C 09 92 
12:56:36:0000 Rx 1 0x153 s 3 E9 67 39 
12:56:36:0010 Rx 1 0x4F0 s 8 10 00 00 40 00 FF FF 4A 
12:56:36:0010 Rx 1 0x0F2 s 6 FF FF FF FF EE EE 
12:56:36:0020 Rx 1 0x254 s 4 1A 11 E0 AC 
12:56:36:0050 Rx 1 0x4D3 s 7 00 00 00 00 00 00 00 
12:56:36:0070 Rx 1 0x130 s 8 00 80 20 00 BE 7F 2D 04 
12:56:36:0070 Rx 1 0x131 s 8 00 00 00 00 03 81 0D 82 
12:56:36:0080 Rx 1 0x100 s 8 00 00 63 00 10 00 E0 40 
12:56:36:0080 Rx 1 0x21A s 5 23 50 A0 F0 12 
12:56:36:0090 Rx 1 0x2B0 s 5 20 00 00 07 36 
12:56:36:0090 Rx 1 0x590 s 3 00 01 00 
12:56:36:0100 Rx 1 0x152 s 6 00 00 00 0C 0A B5 
12:56:36:0130 Rx 1 0x244 s 4 08 00 00 00 
12:56:36:0170 Rx 1 0x130 s 8 00 80 20 00 BE 7F 2E 23 
12:56:36:0170 Rx 1 0x131 s 8 00 00 00 00 03 81 0E A5 
12:56:36:0190 Rx 1 0x2B0 s 5 20 00 00 07 27 
12:56:36:0190 Rx 1 0x37B s 8 00 00 FF FF FF FF FF 04 
12:56:36:0200 Rx 1 0x280 s 8 0F 01 FF 00 FD 58 03 B8 
12:56:36:0200 Rx 1 0x152 s 6 00 00 00 0C 0B A8 
12:56:36:0210 Rx 1 0x153 s 3 E9 77 F4 
12:56:36:0210 Rx 1 0x2F0 s 7 00 00 08 99 00 01 28 
12:56:36:0220 Rx 1 0x362 s 8 15 49 24 06 00 10 01 58 
12:56:36:0270 Rx 1 0x130 s 8 E8 7F 20 00 A8 7F 2F E8 
12:56:36:0270 Rx 1 0x131 s 8 00 00 00 00 EE 80 0F E1 
12:56:36:0280 Rx 1 0x100 s 8 00 00 63 00 10 00 F0 8D 
12:56:36:0280 Rx 1 0x21A s 5 23 50 A0 00 6D 
12:56:36:0290 Rx 1 0x2B0 s 5 20 00 00 07 D8 
12:56:36:0300 Rx 1 0x152 s 6 00 00 00 0C 0C FB 
12:56:36:0310 Rx 1 0x150 s 8 00 00 4A 64 00 80 86 00 
12:56:36:0310 Rx 1 0x151 s 3 3C 68 18 
12:56:36:0320 Rx 1 0x155 s 7 FF 7F 00 18 00 C0 12 
12:56:36:0320 Rx 1 0x156 s 7 FF 7F 00 08 E8 C3 21 
12:56:36:0330 Rx 1 0x247 s 2 22 24 
12:56:36:0330 Rx 1 0x310 s 3 00 44 44 
12:56:36:0340 Rx 1 0x380 s 8 A2 82 FF 00 00 00 00 9C 
12:56:36:0340 Rx 1 0x43A s 2 00 00 
12:56:36:0340 Rx 1 0x4CA s 8 FC 03 00 00 8E 0E 0E 2E 
12:56:36:0350 Rx 1 0x4CD s 4 77 77 01 00 
12:56:36:0350 Rx 1 0x4CF s 6 00 00 00 00 00 00 
12:56:36:0350 Rx 1 0x501 s 5 00 00 00 08 08 
12:56:36:0370 Rx 1 0x130 s 8 E8 7F 20 00 A8 7F 20 53 
12:56:36:0370 Rx 1 0x131 s 8 00 00 00 00 EE 80 00 5A 
12:56:36:0390 Rx 1 0x2B0 s 5 20 00 00 07 C9 
12:56:36:0400 Rx 1 0x152 s 6 00 00 00 0C 0D E6 
12:56:36:0400 Rx 1 0x153 s 3 E9 87 8B 
12:56:36:0410 Rx 1 0x495 s 1 00 
12:56:36:0410 Rx 1 0x243 s 2 08 00 
12:56:36:0460 Rx 1 0x21A s 5 23 50 A0 10 A0 
12:56:36:0460 Rx 1 0x246 s 4 00 01 02 03 
12:56:36:0470 Rx 1 0x130 s 8 E8 7F 20 00 BE 7F 21 53 
12:56:36:0470 Rx 1 0x131 s 8 00 00 00 00 03 81 01 1E 
12:56:36:0480 Rx 1 0x100 s 8 00 00 63 00 10 00 00 F2 
12:56:36:0480 Rx 1 0x245 s 4 00 01 02 03 
12:56:36:0480 Rx 1 0x249 s 1 10 
12:56:36:0490 Rx 1 0x2B0 s 5 20 00 00 07 FA 
12:56:36:0500 Rx 1 0x152 s 6 00 00 00 0C 0E C1 
12:56:36:0570 Rx 1 0x130 s 8 E8 7F 20 00 BE 7F 22 74 
12:56:36:0570 Rx 1 0x131 s 8 00 00 00 00 03 81 02 39 
12:56:36:0580 Rx 1 0x3AA s 6 1E 00 CD FF 40 9C 
12:56:36:0590 Rx 1 0x2B0 s 5 20 00 00 07 EB 
12:56:36:0590 Rx 1 0x590 s 3 00 01 00 
12:56:36:0600 Rx 1 0x152 s 6 00 00 00 0C 0F DC 
12:56:36:0600 Rx 1 0x153 s 3 E9 97 46 
12:56:36:0630 Rx 1 0x244 s 4 08 00 00 00 
12:56:36:0650 Rx 1 0x21A s 5 23 50 A0 20 EA 
12:56:36:0670 Rx 1 0x130 s 8 E8 7F 20 00 A8 7F 23 74 
12:56:36:0670 Rx 1 0x131 s 8 00 00 00 00 03 81 03 24 
12:56:36:0680 Rx 1 0x100 s 8 00 00 63 00 10 00 10 3F 
12:56:36:0680 Rx 1 0x240 s 5 BC 83 EB CB FF 
12:56:36:0690 Rx 1 0x2B0 s 5 20 00 00 07 9C 
12:56:36:0700 Rx 1 0x280 s 8 0F 01 FF 00 FD 58 03 B8 
12:56:36:0710 Rx 1 0x152 s 6 00 00 00 0C 00 67 
12:56:36:0710 Rx 1 0x157 s 8 90 00 94 80 3C 00 70 2B 
12:56:36:0710 Rx 1 0x23E s 5 55 BC B0 B1 E1 
12:56:36:0720 Rx 1 0x23F s 5 55 BC B0 B1 E1 
12:56:36:0720 Rx 1 0x251 s 3 00 06 06 
12:56:36:0730 Rx 1 0x27D s 8 00 00 00 00 00 00 00 00 
12:56:36:0730 Rx 1 0x2F0 s 7 00 00 08 99 00 01 28 
12:56:36:0740 Rx 1 0x362 s 8 15 49 24 06 00 10 01 58 
12:56:36:0740 Rx 1 0x365 s 6 00 54 00 02 60 7D 
12:56:36:0740 Rx 1 0x4D0 s 2 00 00 
12:56:36:0740 Rx 1 0x532 s 1 00 
12:56:36:0750 Rx 1 0x614 s 1 00 
12:56:36:0750 Rx 1 0x615 s 2 00 00 
12:56:36:0770 Rx 1 0x130 s 8 E8 7F 20 00 A8 7F 24 27 
12:56:36:0770 Rx 1 0x131 s 8 00 00 00 00 03 81 04 77 
12:56:36:0780 Rx 1 0x241 s 5 BC 83 EB CB FF 
12:56:36:0790 Rx 1 0x2B0 s 5 20 00 00 07 8D 
12:56:36:0800 Rx 1 0x152 s 6 00 00 00 0C 01 7A 
12:56:36:0800 Rx 1 0x153 s 3 E9 A7 0C 
12:56:36:0810 Rx 1 0x210 s 3 B0 04 B4 
12:56:36:0810 Rx 1 0x260 s 2 00 00 
12:56:36:0820 Rx 1 0x247 s 2 22 24 
12:56:36:0840 Rx 1 0x21A s 5 23 50 A0 30 27 
12:56:36:0870 Rx 1 0x130 s 8 00 80 20 00 BE 7F 25 EC 
12:56:36:0870 Rx 1 0x131 s 8 00 00 00 00 EE 80 05 33 
12:56:36:0880 Rx 1 0x100 s 8 00 00 63 00 10 00 20 75 
12:56:36:0880 Rx 1 0x242 s 4 7B D4 C0 6F 
12:56:36:0890 Rx 1 0x2B0 s 5 20 00 00 07 BE 
12:56:36:0900 Rx 1 0x152 s 6 00 00 00 0C 02 5D 
12:56:36:0910 Rx 1 0x613 s 4 D2 BE 8A 04 
12:56:36:0910 Rx 1 0x243 s 2 08 00 
12:56:36:0960 Rx 1 0x246 s 4 00 01 03 02 
12:56:36:0970 Rx 1 0x130 s 8 00 80 20 00 BE 7F 26 CB 
12:56:36:0970 Rx 1 0x131 s 8 00 00 00 00 EE 80 06 14 
12:56:36:0980 Rx 1 0x245 s 4 00 01 03 02 
12:56:36:0980 Rx 1 0x249 s 1 10 
12:56:36:0990 Rx 1 0x2B0 s 5 20 00 00 07 AF 
12:56:36:1000 Rx 1 0x152 s 6 00 00 00 0C 03 40 
12:56:36:1000 Rx 1 0x153 s 3 E9 B7 C1 
12:56:36:1010 Rx 1 0x4F0 s 8 13 00 00 40 00 FF FF 4A 
12:56:36:1010 Rx 1 0x0F2 s 6 FF FF FF FF FF FF 
12:56:36:1020 Rx 1 0x254 s 4 1A 11 F0 61 
12:56:36:1030 Rx 1 0x21A s 5 23 50 A0 40 7E 
12:56:36:1070 Rx 1 0x130 s 8 E8 7F 20 00 BE 7F 27 1D 
12:56:36:1070 Rx 1 0x131 s 8 00 00 00 00 03 81 07 50 
12:56:36:1080 Rx 1 0x100 s 8 00 00 63 00 10 00 30 B8 
12:56:36:1090 Rx 1 0x2B0 s 5 20 00 00 07 50 
12:56:36:1100 Rx 1 0x152 s 6 00 00 00 0C 04 13 
12:56:36:1110 Rx 1 0x590 s 3 00 01 00 
12:56:36:1130 Rx 1 0x244 s 4 08 00 00 00 
12:56:36:1170 Rx 1 0x130 s 8 E8 7F 20 00 BE 7F 28 A6 
12:56:36:1170 Rx 1 0x131 s 8 00 00 00 00 03 81 08 EB 
12:56:36:1180 Rx 1 0x37B s 8 00 00 FF FF FF FF FF 05 
12:56:36:1190 Rx 1 0x2B0 s 5 20 00 00 07 41 
12:56:36:1200 Rx 1 0x280 s 8 0F 01 FF 00 FD 58 03 B8 
12:56:36:1210 Rx 1 0x152 s 6 00 00 00 0C 05 0E 
12:56:36:1210 Rx 1 0x153 s 3 E9 C7 98 
12:56:36:1210 Rx 1 0x2F0 s 7 00 00 08 99 00 01 28 
12:56:36:1220 Rx 1 0x362 s 8 15 49 24 06 00 10 01 58 
12:56:36:1230 Rx 1 0x21A s 5 23 50 A0 50 B3 
12:56:36:1270 Rx 1 0x130 s 8 E8 7F 20 00 A8 7F 29 A6 
12:56:36:1270 Rx 1 0x131 s 8 00 00 00 00 03 81 09 F6 
12:56:36:1280 Rx 1 0x100 s 8 00 00 63 00 10 00 40 E1 
12:56:36:1280 Rx 1 0x3C1 s 5 00 00 00 C0 6C 
12:56:36:1280 Rx 1 0x50E s 8 FF 03 00 00 00 72 01 80 
12:56:36:1290 Rx 1 0x2B0 s 5 20 00 00 07 72 
12:56:36:1290 Rx 1 0x510 s 6 FF FF 00 00 FF FF 
12:56:36:1300 Rx 1 0x152 s 6 00 00 00 0C 06 29 
12:56:36:1310 Rx 1 0x151 s 3 3C 68 18 
12:56:36:1310 Rx 1 0x150 s 8 00 00 4A 64 00 80 86 00 
12:56:36:1320 Rx 1 0x155 s 7 FF 7F 00 18 00 D0 DF 
12:56:36:1320 Rx 1 0x156 s 7 FF 7F 00 08 E8 D3 EC 
12:56:36:1320 Rx 1 0x247 s 2 22 24 
12:56:36:1330 Rx 1 0x298 s 3 F8 6F 97 
12:56:36:1330 Rx 1 0x4CF s 6 00 00 00 00 00 00 
12:56:36:1340 Rx 1 0x2E7 s 6 05 78 15 65 60 53 
12:56:36:1370 Rx 1 0x130 s 8 E8 7F 20 00 A8 7F 2A 81 
12:56:36:1370 Rx 1 0x131 s 8 00 00 00 00 03 81 0A D1 
12:56:36:1390 Rx 1 0x2B0 s 5 20 00 00 07 63 
12:56:36:1400 Rx 1 0x152 s 6 00 00 00 0C 07 34 
12:56:36:1400 Rx 1 0x153 s 3 E9 D7 55 
12:56:36:1410 Rx 1 0x243 s 2 08 00 
12:56:36:1430 Rx 1 0x21A s 5 23 50 A0 60 F9 
12:56:36:1460 Rx 1 0x246 s 4 00 01 04 05 
12:56:36:1470 Rx 1 0x130 s 8 E8 7F 20 00 A8 7F 2B 9C 
12:56:36:1470 Rx 1 0x131 s 8 00 00 00 00 03 81 0B CC 
12:56:36:1480 Rx 1 0x100 s 8 00 00 63 00 10 00 50 2C 
12:56:36:1480 Rx 1 0x245 s 4 00 01 04 05 
12:56:36:1480 Rx 1 0x249 s 1 10 
12:56:36:1490 Rx 1 0x2B0 s 5 20 00 00 07 14 
12:56:36:1500 Rx 1 0x152 s 6 00 00 00 0C 08 8F 
12:56:36:1570 Rx 1 0x130 s 8 E8 7F 20 00 A8 7F 2C CF 
12:56:36:1570 Rx 1 0x131 s 8 00 00 00 00 03 81 0C 9F 
12:56:36:1590 Rx 1 0x590 s 3 00 01 00 
12:56:36:1590 Rx 1 0x2B0 s 5 20 00 00 07 05 
12:56:36:1600 Rx 1 0x152 s 6 00 00 00 0C 09 92 
12:56:36:1600 Rx 1 0x153 s 3 E9 E7 1F 
12:56:36:1620 Rx 1 0x21A s 5 23 50 A0 70 34 
12:56:36:1630 Rx 1 0x244 s 4 08 00 00 00 
12:56:36:1670 Rx 1 0x130 s 8 00 80 20 00 BE 7F 2D 04 
12:56:36:1670 Rx 1 0x131 s 8 00 00 00 00 03 81 0D 82 
12:56:36:1680 Rx 1 0x100 s 8 00 00 63 00 10 00 60 66 
12:56:36:1680 Rx 1 0x3AA s 6 1E 00 CD FF 40 9C 
12:56:36:1690 Rx 1 0x2B0 s 5 20 00 00 07 36 
12:56:36:1700 Rx 1 0x280 s 8 0F 01 FF 00 FD 58 03 B8 
12:56:36:1710 Rx 1 0x152 s 6 00 00 00 0C 0A B5 
12:56:36:1710 Rx 1 0x157 s 8 90 00 94 90 19 00 70 2B 
12:56:36:1710 Rx 1 0x23E s 5 55 BC B0 B1 E1 
12:56:36:1720 Rx 1 0x23F s 5 55 BC B0 B1 E1 
12:56:36:1720 Rx 1 0x251 s 3 00 07 07 
12:56:36:1730 Rx 1 0x2F0 s 7 00 00 08 99 00 01 28 
12:56:36:1730 Rx 1 0x362 s 8 15 49 24 06 00 10 01 58 
12:56:36:1730 Rx 1 0x614 s 1 00 
12:56:36:1730 Rx 1 0x615 s 2 00 00 
12:56:36:1750 Rx 1 0x240 s 5 BC 83 EB CB FF 
12:56:36:1770 Rx 1 0x130 s 8 00 80 20 00 BE 7F 2E 23 
12:56:36:1770 Rx 1 0x131 s 8 00 00 00 00 03 81 0E A5 
12:56:36:1790 Rx 1 0x2B0 s 5 20 00 00 07 27 
12:56:36:1800 Rx 1 0x153 s 3 E9 F7 D2 
12:56:36:1800 Rx 1 0x152 s 6 00 00 00 0C 0B A8 
12:56:36:1810 Rx 1 0x210 s 3 B0 14 A4 
12:56:36:1810 Rx 1 0x21A s 5 23 50 A0 80 4B 
12:56:36:1810 Rx 1 0x260 s 2 00 00 
12:56:36:1820 Rx 1 0x247 s 2 22 24 
12:56:36:1840 Rx 1 0x241 s 5 BC 83 EB CB FF 
12:56:36:1870 Rx 1 0x130 s 8 E8 7F 20 00 A8 7F 2F E8 
12:56:36:1870 Rx 1 0x131 s 8 00 00 00 00 03 81 0F B8 
12:56:36:1880 Rx 1 0x100 s 8 00 00 63 00 10 00 70 AB 
12:56:36:1880 Rx 1 0x242 s 4 7B D4 D0 7F 
12:56:36:1890 Rx 1 0x2B0 s 5 20 00 00 07 D8 
12:56:36:1900 Rx 1 0x152 s 6 00 00 00 0C 0C FB 
12:56:36:1910 Rx 1 0x613 s 4 D2 BE 8A 04 
12:56:36:1910 Rx 1 0x243 s 2 08 00 
12:56:36:1960 Rx 1 0x246 s 4 00 01 05 04 
12:56:36:1970 Rx 1 0x130 s 8 E8 7F 20 00 A8 7F 20 53 
12:56:36:1970 Rx 1 0x131 s 8 00 00 00 00 03 81 00 03 
12:56:36:1980 Rx 1 0x245 s 4 00 01 05 04 
12:56:36:1980 Rx 1 0x249 s 1 10 
12:56:36:1990 Rx 1 0x2B0 s 5 20 00 00 07 C9 
12:56:36:2000 Rx 1 0x21A s 5 23 50 A0 90 86 
12:56:36:2000 Rx 1 0x152 s 6 00 00 00 0C 0D E6 
12:56:36:2010 Rx 1 0x153 s 3 E9 07 AD 
12:56:36:2010 Rx 1 0x4F0 s 8 00 00 00 40 00 FF FF 4A 
12:56:36:2020 Rx 1 0x0F2 s 6 FF FF FF FF 00 00 
12:56:36:2020 Rx 1 0x254 s 4 1A 11 00 1E 
12:56:36:2070 Rx 1 0x130 s 8 E8 7F 20 00 A8 7F 21 4E 
12:56:36:2070 Rx 1 0x131 s 8 00 00 00 00 03 81 01 1E 
12:56:36:2080 Rx 1 0x100 s 8 00 00 63 00 10 00 80 D4 
12:56:36:2090 Rx 1 0x2B0 s 5 20 00 00 07 FA 
12:56:36:2090 Rx 1 0x590 s 3 00 01 00 
12:56:36:2100 Rx 1 0x152 s 6 00 00 00 0C 0E C1 
12:56:36:2130 Rx 1 0x244 s 4 08 00 00 00 
12:56:36:2170 Rx 1 0x130 s 8 E8 7F 20 00 A8 7F 22 69 
12:56:36:2170 Rx 1 0x131 s 8 00 00 00 00 03 81 02 39 
12:56:36:2180 Rx 1 0x37B s 8 00 00 FF FF FF FF FF 06 
12:56:36:2190 Rx 1 0x2B0 s 5 20 00 00 07 EB 
12:56:36:2190 Rx 1 0x21A s 5 23 50 A0 A0 CC 
12:56:36:2200 Rx 1 0x280 s 8 0F 01 FF 00 FD 58 03 B8 
12:56:36:2210 Rx 1 0x152 s 6 00 00 00 0C 0F DC 
12:56:36:2210 Rx 1 0x153 s 3 E9 17 60 
12:56:36:2210 Rx 1 0x2F0 s 7 00 00 08 99 00 01 28 
12:56:36:2220 Rx 1 0x362 s 8 15 49 24 06 00 10 01 58 
12:56:36:2270 Rx 1 0x130 s 8 E8 7F 20 00 A8 7F 23 74 
12:56:36:2270 Rx 1 0x131 s 8 00 00 00 00 03 81 03 24 
12:56:36:2280 Rx 1 0x100 s 8 00 00 63 00 10 00 90 19 
12:56:36:2290 Rx 1 0x2B0 s 5 20 00 00 07 9C 
12:56:36:2300 Rx 1 0x152 s 6 00 00 00 0C 00 67 
12:56:36:2310 Rx 1 0x150 s 8 00 00 4A 64 00 80 86 00 
12:56:36:2310 Rx 1 0x151 s 3 3C 68 18 
12:56:36:2320 Rx 1 0x155 s 7 FF 7F 00 18 00 E0 95 
12:56:36:2320 Rx 1 0x156 s 7 FF 7F 00 08 E8 E3 A6 
12:56:36:2330 Rx 1 0x247 s 2 22 24 
12:56:36:2330 Rx 1 0x310 s 3 00 54 54 
12:56:36:2340 Rx 1 0x4CF s 6 00 00 00 00 00 00 
12:56:36:2370 Rx 1 0x130 s 8 E8 7F 20 00 A8 7F 24 27 
12:56:36:2370 Rx 1 0x131 s 8 00 00 00 00 03 81 04 77 
12:56:36:2390 Rx 1 0x2B0 s 5 20 00 00 07 8D 
12:56:36:2390 Rx 1 0x21A s 5 23 50 A0 B0 01 
12:56:36:2400 Rx 1 0x152 s 6 00 00 00 0C 01 7A 
12:56:36:2410 Rx 1 0x153 s 3 E9 27 2A 
12:56:36:2410 Rx 1 0x243 s 2 08 00 
12:56:36:2460 Rx 1 0x246 s 4 00 01 06 07 
12:56:36:2470 Rx 1 0x130 s 8 00 80 20 00 BE 7F 25 EC 
12:56:36:2470 Rx 1 0x131 s 8 00 00 00 00 EE 80 05 33 
12:56:36:2480 Rx 1 0x100 s 8 00 00 63 00 10 00 A0 53 
12:56:36:2480 Rx 1 0x245 s 4 00 01 06 07 
12:56:36:2480 Rx 1 0x249 s 1 10 
12:56:36:2490 Rx 1 0x4D1 s 7 00 00 00 00 00 00 00 
12:56:36:2490 Rx 1 0x2B0 s 5 20 00 00 07 BE 
12:56:36:2500 Rx 1 0x152 s 6 00 00 00 0C 02 5D 
12:56:36:2550 Rx 1 0x4D3 s 7 00 00 00 00 00 00 00 
12:56:36:2570 Rx 1 0x130 s 8 00 80 20 00 BE 7F 26 CB 
12:56:36:2570 Rx 1 0x131 s 8 00 00 00 00 EE 80 06 14 
12:56:36:2590 Rx 1 0x21A s 5 23 50 A0 C0 58 
12:56:36:2590 Rx 1 0x2B0 s 5 20 00 00 07 AF 
12:56:36:2600 Rx 1 0x590 s 3 00 01 00 
12:56:36:2600 Rx 1 0x152 s 6 00 00 00 0C 03 40 
12:56:36:2600 Rx 1 0x153 s 3 E9 37 E7 
12:56:36:2630 Rx 1 0x244 s 4 08 00 00 00 
12:56:36:2670 Rx 1 0x130 s 8 00 80 20 00 BE 7F 27 D6 
12:56:36:2670 Rx 1 0x131 s 8 00 00 00 00 03 81 07 50 
12:56:36:2680 Rx 1 0x100 s 8 00 00 63 00 10 00 B0 9E 
12:56:36:2680 Rx 1 0x240 s 5 BC 83 EB CB FF 
12:56:36:2690 Rx 1 0x2B0 s 5 20 00 00 07 50 
12:56:36:2700 Rx 1 0x280 s 8 0F 01 FF 00 FD 58 03 B8 
12:56:36:2710 Rx 1 0x152 s 6 00 00 00 0C 04 13 
12:56:36:2710 Rx 1 0x157 s 8 90 00 94 A0 76 00 70 2B 
12:56:36:2710 Rx 1 0x23E s 5 55 BC B0 B1 E1 
12:56:36:2720 Rx 1 0x23F s 5 55 BC B0 B1 E1 
12:56:36:2720 Rx 1 0x251 s 3 00 08 08 
12:56:36:2730 Rx 1 0x2F0 s 7 00 00 08 99 00 01 28 
12:56:36:2730 Rx 1 0x362 s 8 15 49 24 06 00 10 01 58 
12:56:36:2730 Rx 1 0x614 s 1 00 
12:56:36:2730 Rx 1 0x615 s 2 00 00 
12:56:36:2770 Rx 1 0x130 s 8 00 80 20 00 BE 7F 28 6D 
12:56:36:2770 Rx 1 0x131 s 8 00 00 00 00 03 81 08 EB 
12:56:36:2770 Rx 1 0x21A s 5 23 50 A0 D0 95 
12:56:36:2780 Rx 1 0x3AA s 6 1E 00 CD FF 40 9C 
12:56:36:2790 Rx 1 0x241 s 5 BC 83 EB CB FF 
12:56:36:2790 Rx 1 0x2B0 s 5 20 00 00 07 41 
12:56:36:2800 Rx 1 0x260 s 2 00 00 
12:56:36:2810 Rx 1 0x152 s 6 00 00 00 0C 05 0E 
12:56:36:2810 Rx 1 0x153 s 3 E9 47 BE 
12:56:36:2810 Rx 1 0x210 s 3 B0 24 94 
12:56:36:2820 Rx 1 0x247 s 2 22 24 
12:56:36:2830 Rx 1 0x380 s 8 A2 82 FF 00 00 00 10 8C 
12:56:36:2840 Rx 1 0x43A s 2 00 00 
12:56:36:2840 Rx 1 0x4CA s 8 FC 03 00 00 8E 0E 0E 2E 
12:56:36:2840 Rx 1 0x4CD s 4 77 77 01 00 
12:56:36:2870 Rx 1 0x130 s 8 E8 7F 20 00 A8 7F 29 A6 
12:56:36:2870 Rx 1 0x131 s 8 00 00 00 00 03 81 09 F6 
12:56:36:2880 Rx 1 0x100 s 8 00 00 63 00 10 00 C0 C7 
12:56:36:2880 Rx 1 0x242 s 4 7B D4 E0 4F 
12:56:36:2890 Rx 1 0x2B0 s 5 20 00 00 07 72 
12:56:36:2900 Rx 1 0x152 s 6 00 00 00 0C 06 29 
12:56:36:2900 Rx 1 0x613 s 4 D2 BE 8A 04 
12:56:36:2910 Rx 1 0x243 s 2 08 00 
12:56:36:2960 Rx 1 0x246 s 4 00 01 07 06 
12:56:36:2970 Rx 1 0x130 s 8 E8 7F 20 00 A8 7F 2A 81 
12:56:36:2970 Rx 1 0x131 s 8 00 00 00 00 03 81 0A D1 
12:56:36:2980 Rx 1 0x21A s 5 23 50 A0 E0 DF 
12:56:36:2980 Rx 1 0x245 s 4 00 01 07 06 
12:56:36:2980 Rx 1 0x249 s 1 10 
12:56:36:2990 Rx 1 0x2B0 s 5 20 00 00 07 63 
12:56:36:3000 Rx 1 0x153 s 3 E9 57 73 
12:56:36:3000 Rx 1 0x152 s 6 00 00 00 0C 07 34 
12:56:36:3010 Rx 1 0x4F0 s 8 03 00 00 40 00 FF FF 4A 
12:56:36:3010 Rx 1 0x0F2 s 6 FF FF FF FF 11 11 
12:56:36:3020 Rx 1 0x254 s 4 1A 11 10 D3 
12:56:36:3070 Rx 1 0x130 s 8 E8 7F 20 00 BE 7F 2B 81 
12:56:36:3070 Rx 1 0x131 s 8 00 00 00 00 EE 80 0B 95 
12:56:36:3080 Rx 1 0x100 s 8 00 00 63 00 10 00 D0 0A 
12:56:36:3090 Rx 1 0x2B0 s 5 20 00 00 07 14 
12:56:36:3090 Rx 1 0x590 s 3 00 01 00 
12:56:36:3100 Rx 1 0x152 s 6 00 00 00 0C 08 8F 
12:56:36:3130 Rx 1 0x244 s 4 08 00 00 00 
12:56:36:3160 Rx 1 0x37B s 8 00 00 FF FF FF FF FF 07 
12:56:36:3170 Rx 1 0x130 s 8 E8 7F 20 00 BE 7F 2C D2 
12:56:36:3170 Rx 1 0x131 s 8 00 00 00 00 EE 80 0C C6 
12:56:36:3170 Rx 1 0x21A s 5 23 50 A0 F0 12 
12:56:36:3190 Rx 1 0x2B0 s 5 20 00 00 07 05 
12:56:36:3200 Rx 1 0x280 s 8 0F 01 FF 00 FD 58 03 B8 
12:56:36:3210 Rx 1 0x152 s 6 00 00 00 0C 09 92 
12:56:36:3210 Rx 1 0x153 s 3 E9 67 39 
12:56:36:3210 Rx 1 0x27D s 8 00 00 00 00 00 00 00 00 
12:56:36:3220 Rx 1 0x2F0 s 7 00 00 08 99 00 01 28 
12:56:36:3220 Rx 1 0x362 s 8 15 49 24 06 00 10 01 58 
12:56:36:3230 Rx 1 0x365 s 6 00 54 00 02 60 7D 
12:56:36:3230 Rx 1 0x4D0 s 2 00 00 
12:56:36:3270 Rx 1 0x130 s 8 E8 7F 20 00 BE 7F 2D CF 
12:56:36:3270 Rx 1 0x131 s 8 00 00 00 00 03 81 0D 82 
12:56:36:3280 Rx 1 0x100 s 8 00 00 63 00 10 00 E0 40 
12:56:36:3290 Rx 1 0x2B0 s 5 20 00 00 07 36 
12:56:36:3300 Rx 1 0x152 s 6 00 00 00 0C 0A B5 
12:56:36:3310 Rx 1 0x150 s 8 00 00 4A 64 00 80 86 00 
12:56:36:3310 Rx 1 0x151 s 3 3C 68 18 
12:56:36:3320 Rx 1 0x155 s 7 FF 7F 00 18 00 F0 58 
12:56:36:3320 Rx 1 0x156 s 7 FF 7F 00 08 E8 F3 6B 
12:56:36:3330 Rx 1 0x247 s 2 22 24 
12:56:36:3330 Rx 1 0x298 s 3 F8 7F 87 
12:56:36:3330 Rx 1 0x4CF s 6 00 00 00 00 00 00 
12:56:36:3360 Rx 1 0x21A s 5 23 50 A0 00 6D 
12:56:36:3370 Rx 1 0x130 s 8 E8 7F 20 00 BE 7F 2E E8 
12:56:36:3370 Rx 1 0x131 s 8 00 00 00 00 03 81 0E A5 
12:56:36:3390 Rx 1 0x2B0 s 5 20 00 00 07 27 
12:56:36:3400 Rx 1 0x152 s 6 00 00 00 0C 0B A8 
12:56:36:3400 Rx 1 0x153 s 3 E9 77 F4 
12:56:36:3420 Rx 1 0x243 s 2 08 00 
12:56:36:3460 Rx 1 0x246 s 4 00 01 08 09 
12:56:36:3470 Rx 1 0x130 s 8 E8 7F 20 00 A8 7F 2F E8 
12:56:36:3470 Rx 1 0x131 s 8 00 00 00 00 03 81 0F B8 
12:56:36:3480 Rx 1 0x100 s 8 00 00 63 00 10 00 F0 8D 
12:56:36:3480 Rx 1 0x245 s 4 00 01 08 09 
12:56:36:3480 Rx 1 0x249 s 1 10 
12:56:36:3490 Rx 1 0x2B0 s 5 20 00 00 07 D8 
12:56:36:3500 Rx 1 0x152 s 6 00 00 00 0C 0C FB 
12:56:36:3550 Rx 1 0x21A s 5 23 50 A0 10 A0 
12:56:36:3570 Rx 1 0x130 s 8 E8 7F 20 00 A8 7F 20 53 
12:56:36:3570 Rx 1 0x131 s 8 00 00 00 00 03 81 00 03 
12:56:36:3590 Rx 1 0x2B0 s 5 20 00 00 07 C9 
12:56:36:3590 Rx 1 0x590 s 3 00 01 00 
12:56:36:3600 Rx 1 0x152 s 6 00 00 00 0C 0D E6 
12:56:36:3610 Rx 1 0x153 s 3 E9 87 8B 
12:56:36:3630 Rx 1 0x244 s 4 08 00 00 00 
12:56:36:3670 Rx 1 0x130 s 8 00 80 20 00 A8 7F 21 85 
12:56:36:3670 Rx 1 0x131 s 8 00 00 00 00 03 81 01 1E 
12:56:36:3680 Rx 1 0x100 s 8 00 00 63 00 10 00 00 F2 
12:56:36:3690 Rx 1 0x2B0 s 5 20 00 00 07 FA 
12:56:36:3700 Rx 1 0x280 s 8 0F 01 FF 00 FD 58 03 B8 
12:56:36:3700 Rx 1 0x152 s 6 00 00 00 0C 0E C1 
12:56:36:3710 Rx 1 0x157 s 8 90 00 94 B0 53 00 70 2B 
12:56:36:3710 Rx 1 0x23E s 5 55 BC B0 B1 E1 
12:56:36:3720 Rx 1 0x23F s 5 55 BC B0 B1 E1 
12:56:36:3720 Rx 1 0x240 s 5 BC 83 EB CB FF 
12:56:36:3720 Rx 1 0x251 s 3 00 09 09 
12:56:36:3730 Rx 1 0x2F0 s 7 00 00 08 99 00 01 28 
12:56:36:3730 Rx 1 0x362 s 8 15 49 24 06 00 10 01 58 
12:56:36:3730 Rx 1 0x614 s 1 00 
12:56:36:3740 Rx 1 0x21A s 5 23 50 A0 20 EA 
12:56:36:3740 Rx 1 0x615 s 2 00 00 
12:56:36:3770 Rx 1 0x130 s 8 00 80 20 00 A8 7F 22 A2 
12:56:36:3770 Rx 1 0x131 s 8 00 00 00 00 03 81 02 39 
12:56:36:3780 Rx 1 0x241 s 5 BC 83 EB CB FF 
12:56:36:3790 Rx 1 0x2B0 s 5 20 00 00 07 EB 
12:56:36:3800 Rx 1 0x153 s 3 E9 97 46 
12:56:36:3800 Rx 1 0x152 s 6 00 00 00 0C 0F DC 
12:56:36:3810 Rx 1 0x210 s 3 B0 34 84 
12:56:36:3810 Rx 1 0x260 s 2 00 00 
12:56:36:3820 Rx 1 0x247 s 2 22 24 
12:56:36:3870 Rx 1 0x130 s 8 00 80 20 00 D4 7F 23 FD 
12:56:36:3870 Rx 1 0x131 s 8 00 00 00 00 EE 80 03 7D 
12:56:36:3880 Rx 1 0x100 s 8 00 00 63 00 10 00 10 3F 
12:56:36:3880 Rx 1 0x242 s 4 7B D4 F0 5F 
12:56:36:3880 Rx 1 0x3AA s 6 1E 00 CD FF 40 9C 
12:56:36:3890 Rx 1 0x2B0 s 5 20 00 00 07 9C 
12:56:36:3900 Rx 1 0x152 s 6 00 00 00 0C 00 67 
12:56:36:3910 Rx 1 0x613 s 4 D2 BE 8A 04 
12:56:36:3910 Rx 1 0x243 s 2 08 00 
12:56:36:3930 Rx 1 0x21A s 5 23 50 A0 30 27 
12:56:36:3960 Rx 1 0x246 s 4 00 01 09 08 
12:56:36:3970 Rx 1 0x130 s 8 00 80 20 00 D4 7F 24 AE 
12:56:36:3970 Rx 1 0x131 s 8 00 00 00 00 EE 80 04 2E 
12:56:36:3980 Rx 1 0x245 s 4 00 01 09 08 
12:56:36:3980 Rx 1 0x249 s 1 10 
12:56:36:3990 Rx 1 0x2B0 s 5 20 00 00 07 8D 
12:56:36:4000 Rx 1 0x4F0 s 8 10 00 00 40 00 FF FF 4A 
12:56:36:4010 Rx 1 0x152 s 6 00 00 00 0C 01 7A 
12:56:36:4010 Rx 1 0x153 s 3 E9 A7 0C 
12:56:36:4010 Rx 1 0x0F2 s 6 FF FF FF FF 22 22 
12:56:36:4020 Rx 1 0x254 s 4 1A 11 20 99 
12:56:36:4070 Rx 1 0x130 s 8 00 80 20 00 A8 7F 25 F1 
12:56:36:4070 Rx 1 0x131 s 8 00 00 00 00 03 81 05 6A 
12:56:36:4080 Rx 1 0x100 s 8 00 00 63 00 10 00 20 75 
12:56:36:4090 Rx 1 0x2B0 s 5 20 00 00 07 BE 
12:56:36:4100 Rx 1 0x590 s 3 00 01 00 
12:56:36:4100 Rx 1 0x152 s 6 00 00 00 0C 02 5D 
12:56:36:4130 Rx 1 0x21A s 5 23 50 A0 40 7E 
12:56:36:4130 Rx 1 0x244 s 4 08 00 00 00 
12:56:36:4150 Rx 1 0x37B s 8 00 00 FF FF FF FF FF 08 
12:56:36:4170 Rx 1 0x130 s 8 00 80 20 00 A8 7F 26 D6 
12:56:36:4170 Rx 1 0x131 s 8 00 00 00 00 03 81 06 4D 
12:56:36:4190 Rx 1 0x2B0 s 5 20 00 00 07 AF 
12:56:36:4200 Rx 1 0x280 s 8 0F 01 FF 00 FD 58 03 B8 
12:56:36:4200 Rx 1 0x152 s 6 00 00 00 0C 03 40 
12:56:36:4210 Rx 1 0x153 s 3 E9 B7 C1 
12:56:36:4210 Rx 1 0x2F0 s 7 00 00 08 99 00 01 28 
12:56:36:4220 Rx 1 0x362 s 8 15 49 24 06 00 10 01 58 
12:56:36:4270 Rx 1 0x130 s 8 E8 7F 20 00 BE 7F 27 1D 
12:56:36:4270 Rx 1 0x131 s 8 00 00 00 00 03 81 07 50 
12:56:36:4280 Rx 1 0x100 s 8 00 00 63 00 10 00 30 B8 
12:56:36:4290 Rx 1 0x2B0 s 5 20 00 00 07 50 
12:56:36:4300 Rx 1 0x152 s 6 00 00 00 0C 04 13 
12:56:36:4310 Rx 1 0x151 s 3 3C 68 18 
12:56:36:4310 Rx 1 0x150 s 8 00 00 4A 64 00 80 86 00 
12:56:36:4320 Rx 1 0x155 s 7 FF 7F 00 18 00 00 27 
12:56:36:4320 Rx 1 0x156 s 7 FF 7F 00 08 E8 03 14 
12:56:36:4330 Rx 1 0x21A s 5 23 50 A0 50 B3 
12:56:36:4330 Rx 1 0x247 s 2 22 24 
12:56:36:4330 Rx 1 0x310 s 3 00 64 64 
12:56:36:4340 Rx 1 0x4CF s 6 00 00 00 00 00 00 
12:56:36:4370 Rx 1 0x130 s 8 E8 7F 20 00 BE 7F 28 A6 
12:56:36:4370 Rx 1 0x131 s 8 00 00 00 00 03 81 08 EB 
12:56:36:4390 Rx 1 0x2B0 s 5 20 00 00 07 41 
12:56:36:4400 Rx 1 0x152 s 6 00 00 00 0C 05 0E 
12:56:36:4400 Rx 1 0x153 s 3 E9 C7 98 
12:56:36:4410 Rx 1 0x243 s 2 08 00 
12:56:36:4460 Rx 1 0x246 s 4 00 01 0A 0B 
12:56:36:4470 Rx 1 0x130 s 8 00 80 20 00 A8 7F 29 6D 
12:56:36:4470 Rx 1 0x131 s 8 00 00 00 00 19 81 09 E1 
12:56:36:4480 Rx 1 0x100 s 8 00 00 63 00 10 00 40 E1 
12:56:36:4480 Rx 1 0x245 s 4 00 01 0A 0B 
12:56:36:4480 Rx 1 0x249 s 1 10 
12:56:36:4490 Rx 1 0x2B0 s 5 20 00 00 07 72 
12:56:36:4500 Rx 1 0x152 s 6 00 00 00 0C 06 29 
12:56:36:4520 Rx 1 0x21A s 5 23 50 A0 60 F9 
12:56:36:4570 Rx 1 0x130 s 8 00 80 20 00 A8 7F 2A 4A 
12:56:36:4570 Rx 1 0x131 s 8 00 00 00 00 19 81 0A C6 
12:56:36:4590 Rx 1 0x2B0 s 5 20 00 00 07 63 
12:56:36:4600 Rx 1 0x590 s 3 00 01 00 
12:56:36:4600 Rx 1 0x152 s 6 00 00 00 0C 07 34 
12:56:36:4600 Rx 1 0x153 s 3 E9 D7 55 
12:56:36:4630 Rx 1 0x244 s 4 08 00 00 00 
12:56:36:4670 Rx 1 0x130 s 8 E8 7F 20 00 A8 7F 2B 9C 
12:56:36:4670 Rx 1 0x131 s 8 00 00 00 00 EE 80 0B 95 
12:56:36:4680 Rx 1 0x100 s 8 00 00 63 00 10 00 50 2C 
12:56:36:4680 Rx 1 0x240 s 5 BC 83 EB CB FF 
12:56:36:4690 Rx 1 0x2B0 s 5 20 00 00 07 14 
12:56:36:4700 Rx 1 0x280 s 8 0F 01 FF 00 FD 58 03 B8 
12:56:36:4710 Rx 1 0x152 s 6 00 00 00 0C 08 8F 
12:56:36:4710 Rx 1 0x157 s 8 90 00 94 C0 A8 00 70 2B 
12:56:36:4710 Rx 1 0x21A s 5 23 50 A0 70 34 
12:56:36:4720 Rx 1 0x23E s 5 55 BC B0 B1 E1 
12:56:36:4720 Rx 1 0x23F s 5 55 BC B0 B1 E1 
12:56:36:4720 Rx 1 0x251 s 3 00 0A 0A 
12:56:36:4730 Rx 1 0x2F0 s 7 00 00 08 99 00 01 28 
12:56:36:4730 Rx 1 0x362 s 8 15 49 24 06 00 10 01 58 
12:56:36:4740 Rx 1 0x614 s 1 00 
12:56:36:4740 Rx 1 0x615 s 2 00 00 
12:56:36:4770 Rx 1 0x130 s 8 E8 7F 20 00 A8 7F 2C CF 
12:56:36:4770 Rx 1 0x131 s 8 00 00 00 00 EE 80 0C C6 
12:56:36:4780 Rx 1 0x241 s 5 BC 83 EB CB FF 
12:56:36:4790 Rx 1 0x2B0 s 5 20 00 00 07 05 
12:56:36:4800 Rx 1 0x152 s 6 00 00 00 0C 09 92 
12:56:36:4800 Rx 1 0x153 s 3 E9 E7 1F 
12:56:36:4810 Rx 1 0x210 s 3 B0 44 F4 
12:56:36:4810 Rx 1 0x260 s 2 00 00 
12:56:36:4820 Rx 1 0x247 s 2 22 24 
12:56:36:4870 Rx 1 0x130 s 8 E8 7F 20 00 A8 7F 2D D2 
12:56:36:4870 Rx 1 0x131 s 8 00 00 00 00 03 81 0D 82 
12:56:36:4880 Rx 1 0x100 s 8 00 00 63 00 10 00 60 66 
12:56:36:4880 Rx 1 0x242 s 4 7B D4 00 AF 
12:56:36:4890 Rx 1 0x2B0 s 5 20 00 00 07 36 
12:56:36:4900 Rx 1 0x21A s 5 23 50 A0 80 4B 
12:56:36:4900 Rx 1 0x152 s 6 00 00 00 0C 0A B5 
12:56:36:4910 Rx 1 0x243 s 2 08 00 
12:56:36:4910 Rx 1 0x613 s 4 D2 BE 8A 04 
12:56:36:4960 Rx 1 0x246 s 4 00 01 0B 0A 
12:56:36:4970 Rx 1 0x130 s 8 E8 7F 20 00 A8 7F 2E F5 
12:56:36:4970 Rx 1 0x131 s 8 00 00 00 00 03 81 0E A5 
12:56:36:4980 Rx 1 0x245 s 4 00 01 0B 0A 
12:56:36:4980 Rx 1 0x249 s 1 10 
12:56:36:4980 Rx 1 0x3AA s 6 1E 00 CD FF 40 9C 
12:56:36:4990 Rx 1 0x4D1 s 7 00 00 00 00 00 00 00 
12:56:36:4990 Rx 1 0x2B0 s 5 20 00 00 07 27 
12:56:36:5000 Rx 1 0x152 s 6 00 00 00 0C 0B A8 
12:56:36:5010 Rx 1 0x153 s 3 E9 F7 D2 
12:56:36:5010 Rx 1 0x4F0 s 8 13 00 00 40 00 FF FF 4A 
12:56:36:5010 Rx 1 0x0F2 s 6 FF FF FF FF 33 33 
12:56:36:5020 Rx 1 0x254 s 4 1A 11 30 54 
12:56:36:5050 Rx 1 0x4D3 s 7 00 00 00 00 00 00 00 
12:56:36:5070 Rx 1 0x130 s 8 00 80 20 00 BE 7F 2F 3E 
12:56:36:5070 Rx 1 0x131 s 8 00 00 00 00 03 81 0F B8 
12:56:36:5080 Rx 1 0x100 s 8 00 00 63 00 10 00 70 AB 
12:56:36:5090 Rx 1 0x2B0 s 5 20 00 00 07 D8 
12:56:36:5090 Rx 1 0x21A s 5 23 50 A0 90 86 
12:56:36:5100 Rx 1 0x590 s 3 00 01 00 
12:56:36:5100 Rx 1 0x152 s 6 00 00 00 0C 0C FB 
12:56:36:5130 Rx 1 0x244 s 4 08 00 00 00 
12:56:36:5140 Rx 1 0x37B s 8 00 00 FF FF FF FF FF 09 
12:56:36:5170 Rx 1 0x130 s 8 00 80 20 00 BE 7F 20 85 
12:56:36:5170 Rx 1 0x131 s 8 00 00 00 00 03 81 00 03 
12:56:36:5190 Rx 1 0x2B0 s 5 20 00 00 07 C9 
12:56:36:5200 Rx 1 0x280 s 8 0F 01 FF 00 FD 58 03 B8 
12:56:36:5210 Rx 1 0x152 s 6 00 00 00 0C 0D E6 
12:56:36:5210 Rx 1 0x153 s 3 E9 07 AD 
12:56:36:5210 Rx 1 0x2F0 s 7 00 00 08 99 00 01 28 
12:56:36:5220 Rx 1 0x362 s 8 15 49 24 06 00 10 01 58 
12:56:36:5270 Rx 1 0x130 s 8 E8 7F 20 00 A8 7F 21 4E 
12:56:36:5270 Rx 1 0x131 s 8 00 00 00 00 03 81 01 1E 
12:56:36:5280 Rx 1 0x100 s 8 00 00 63 00 10 00 80 D4 
12:56:36:5290 Rx 1 0x2B0 s 5 20 00 00 07 FA 
12:56:36:5290 Rx 1 0x21A s 5 23 50 A0 A0 CC 
12:56:36:5300 Rx 1 0x152 s 6 00 00 00 0C 0E C1 
12:56:36:5310 Rx 1 0x151 s 3 3C 68 18 
12:56:36:5310 Rx 1 0x150 s 8 00 00 4A 64 00 80 86 00 
12:56:36:5320 Rx 1 0x155 s 7 FF 7F 00 18 00 10 EA 
12:56:36:5320 Rx 1 0x156 s 7 FF 7F 00 08 E8 13 D9 
12:56:36:5320 Rx 1 0x247 s 2 22 24 
12:56:36:5330 Rx 1 0x298 s 3 F8 8F 77 
12:56:36:5330 Rx 1 0x380 s 8 A2 82 FF 00 00 00 20 BC 
12:56:36:5340 Rx 1 0x43A s 2 00 00 
12:56:36:5340 Rx 1 0x4CA s 8 FC 03 00 00 8E 0E 0E 2E 
12:56:36:5340 Rx 1 0x4CD s 4 77 77 01 00 
12:56:36:5350 Rx 1 0x4CF s 6 00 00 00 00 00 00 
12:56:36:5350 Rx 1 0x501 s 5 00 00 00 09 09 
12:56:36:5370 Rx 1 0x130 s 8 E8 7F 20 00 A8 7F 22 69 
12:56:36:5370 Rx 1 0x131 s 8 00 00 00 00 03 81 02 39 
12:56:36:5390 Rx 1 0x2B0 s 5 20 00 00 07 EB 
12:56:36:5400 Rx 1 0x152 s 6 00 00 00 0C 0F DC 
12:56:36:5400 Rx 1 0x153 s 3 E9 17 60 
12:56:36:5410 Rx 1 0x495 s 1 00 
12:56:36:5410 Rx 1 0x243 s 2 08 00 
12:56:36:5460 Rx 1 0x246 s 4 00 01 0C 0D 
12:56:36:5470 Rx 1 0x130 s 8 E8 7F 20 00 BE 7F 23 69 
12:56:36:5470 Rx 1 0x131 s 8 00 00 00 00 19 81 03 33 
12:56:36:5480 Rx 1 0x100 s 8 00 00 63 00 10 00 90 19 
12:56:36:5480 Rx 1 0x245 s 4 00 01 0C 0D 
12:56:36:5480 Rx 1 0x249 s 1 10 
12:56:36:5480 Rx 1 0x21A s 5 23 50 A0 B0 01 
12:56:36:5490 Rx 1 0x2B0 s 5 20 00 00 07 9C 
12:56:36:5500 Rx 1 0x152 s 6 00 00 00 0C 00 67 
12:56:36:5570 Rx 1 0x130 s 8 E8 7F 20 00 BE 7F 24 3A 
12:56:36:5570 Rx 1 0x131 s 8 00 00 00 00 19 81 04 60 
12:56:36:5590 Rx 1 0x2B0 s 5 20 00 00 07 8D 
12:56:36:5600 Rx 1 0x590 s 3 00 01 00 
12:56:36:5600 Rx 1 0x152 s 6 00 00 00 0C 01 7A 
12:56:36:5610 Rx 1 0x153 s 3 E9 27 2A 
12:56:36:5630 Rx 1 0x244 s 4 08 00 00 00 
12:56:36:5670 Rx 1 0x130 s 8 E8 7F 20 00 BE 7F 25 27 
12:56:36:5670 Rx 1 0x131 s 8 00 00 00 00 EE 80 05 33 
12:56:36:5680 Rx 1 0x100 s 8 00 00 63 00 10 00 A0 53 
12:56:36:5680 Rx 1 0x21A s 5 23 50 A0 C0 58 
12:56:36:5690 Rx 1 0x2B0 s 5 20 00 00 07 BE 
12:56:36:5700 Rx 1 0x280 s 8 0F 01 FF 00 FD 58 03 B8 
12:56:36:5710 Rx 1 0x152 s 6 00 00 00 0C 02 5D 
12:56:36:5710 Rx 1 0x157 s 8 90 00 94 D0 8D 00 70 2B 
12:56:36:5710 Rx 1 0x23E s 5 55 BC B0 B1 E1 
12:56:36:5720 Rx 1 0x23F s 5 55 BC B0 B1 E1 
12:56:36:5720 Rx 1 0x240 s 5 BC 83 EB CB FF 
12:56:36:5720 Rx 1 0x251 s 3 00 0B 0B 
12:56:36:5730 Rx 1 0x27D s 8 00 00 00 00 00 00 00 00 
12:56:36:5730 Rx 1 0x2F0 s 7 00 00 08 99 00 01 28 
12:56:36:5740 Rx 1 0x362 s 8 15 49 24 06 00 10 01 58 
12:56:36:5740 Rx 1 0x365 s 6 00 54 00 02 60 7D 
12:56:36:5750 Rx 1 0x4D0 s 2 00 00 
12:56:36:5750 Rx 1 0x532 s 1 00 
12:56:36:5750 Rx 1 0x614 s 1 00 
12:56:36:5750 Rx 1 0x615 s 2 00 00 
12:56:36:5770 Rx 1 0x130 s 8 E8 7F 20 00 BE 7F 26 00 
12:56:36:5770 Rx 1 0x131 s 8 00 00 00 00 EE 80 06 14 
12:56:36:5790 Rx 1 0x2B0 s 5 20 00 00 07 AF 
12:56:36:5800 Rx 1 0x152 s 6 00 00 00 0C 03 40 
12:56:36:5800 Rx 1 0x153 s 3 E9 37 E7 
12:56:36:5810 Rx 1 0x210 s 3 B0 54 E4 
12:56:36:5810 Rx 1 0x260 s 2 00 00 
12:56:36:5820 Rx 1 0x247 s 2 22 24 
12:56:36:5830 Rx 1 0x241 s 5 BC 83 EB CB FF 
12:56:36:5870 Rx 1 0x130 s 8 E8 7F 20 00 BE 7F 27 1D 
12:56:36:5870 Rx 1 0x131 s 8 00 00 00 00 EE 80 07 09 
12:56:36:5880 Rx 1 0x100 s 8 00 00 63 00 10 00 B0 9E 
12:56:36:5880 Rx 1 0x21A s 5 23 50 A0 D0 95 
12:56:36:5880 Rx 1 0x242 s 4 7B D4 10 BF 
12:56:36:5890 Rx 1 0x2B0 s 5 20 00 00 07 50 
12:56:36:5900 Rx 1 0x613 s 4 D2 BE 8A 04 
12:56:36:5910 Rx 1 0x152 s 6 00 00 00 0C 04 13 
12:56:36:5910 Rx 1 0x243 s 2 08 00 
12:56:36:5960 Rx 1 0x246 s 4 00 01 0D 0C 
12:56:36:5970 Rx 1 0x130 s 8 E8 7F 20 00 BE 7F 28 A6 
12:56:36:5970 Rx 1 0x131 s 8 00 00 00 00 EE 80 08 B2 
12:56:36:5980 Rx 1 0x245 s 4 00 01 0D 0C 
12:56:36:5980 Rx 1 0x249 s 1 10 
12:56:36:5990 Rx 1 0x2B0 s 5 20 00 00 07 41 
12:56:36:6000 Rx 1 0x152 s 6 00 00 00 0C 05 0E 
12:56:36:6010 Rx 1 0x153 s 3 E9 47 BE 
12:56:36:6010 Rx 1 0x4F0 s 8 00 00 00 40 00 FF FF 4A 
12:56:36:6010 Rx 1 0x0F2 s 6 FF FF FF FF 44 44 
12:56:36:6020 Rx 1 0x254 s 4 1A 11 40 0D 
12:56:36:6060 Rx 1 0x21A s 5 23 50 A0 E0 DF 
12:56:36:6070 Rx 1 0x130 s 8 00 80 20 00 BE 7F 29 70 
12:56:36:6070 Rx 1 0x131 s 8 00 00 00 00 03 81 09 F6 
12:56:36:6080 Rx 1 0x100 s 8 00 00 63 00 10 00 C0 C7 
12:56:36:6080 Rx 1 0x3AA s 6 1E 00 CD FF 40 9C 
12:56:36:6090 Rx 1 0x2B0 s 5 20 00 00 07 72 
12:56:36:6100 Rx 1 0x152 s 6 00 00 00 0C 06 29 
12:56:36:6110 Rx 1 0x590 s 3 00 01 00 
12:56:36:6130 Rx 1 0x244 s 4 08 00 00 00 
12:56:36:6140 Rx 1 0x37B s 8 00 00 FF FF FF FF FF 0A 
12:56:36:6170 Rx 1 0x130 s 8 00 80 20 00 BE 7F 2A 57 
12:56:36:6170 Rx 1 0x131 s 8 00 00 00 00 03 81 0A D1 
12:56:36:6190 Rx 1 0x2B0 s 5 20 00 00 07 63 
12:56:36:6200 Rx 1 0x280 s 8 0F 01 FF 00 FD 58 03 B8 
12:56:36:6210 Rx 1 0x152 s 6 00 00 00 0C 07 34 
12:56:36:6210 Rx 1 0x153 s 3 E9 57 73 
12:56:36:6210 Rx 1 0x2F0 s 7 00 00 08 99 00 01 28 
12:56:36:6220 Rx 1 0x362 s 8 15 49 24 06 00 10 01 58 
12:56:36:6250 Rx 1 0x21A s 5 23 50 A0 F0 12 
12:56:36:6270 Rx 1 0x130 s 8 00 80 20 00 A8 7F 2B 57 
12:56:36:6270 Rx 1 0x131 s 8 00 00 00 00 19 81 0B DB 
12:56:36:6280 Rx 1 0x100 s 8 00 00 63 00 10 00 D0 0A 
12:56:36:6280 Rx 1 0x3C1 s 5 00 00 00 D0 A1 
12:56:36:6280 Rx 1 0x50E s 8 FF 03 00 00 00 06 00 00 
12:56:36:6290 Rx 1 0x2B0 s 5 20 00 00 07 14 
12:56:36:6290 Rx 1 0x510 s 6 FF FF 00 00 FF FF 
12:56:36:6300 Rx 1 0x152 s 6 00 00 00 0C 08 8F 
12:56:36:6310 Rx 1 0x150 s 8 00 00 4A 64 00 80 86 00 
12:56:36:6310 Rx 1 0x151 s 3 3C 68 18 
12:56:36:6320 Rx 1 0x155 s 7 FF 7F 00 18 00 20 A0 
12:56:36:6320 Rx 1 0x156 s 7 FF 7F 00 08 E8 23 93 
12:56:36:6330 Rx 1 0x247 s 2 22 24 
12:56:36:6330 Rx 1 0x310 s 3 00 74 74 
12:56:36:6340 Rx 1 0x4CF s 6 00 00 00 00 00 00 
12:56:36:6370 Rx 1 0x130 s 8 00 80 20 00 A8 7F 2C 04 
12:56:36:6370 Rx 1 0x131 s 8 00 00 00 00 19 81 0C 88 
12:56:36:6390 Rx 1 0x2B0 s 5 20 00 00 07 05 
12:56:36:6400 Rx 1 0x152 s 6 00 00 00 0C 09 92 
12:56:36:6400 Rx 1 0x153 s 3 E9 67 39 
12:56:36:6410 Rx 1 0x243 s 2 08 00 
12:56:36:6450 Rx 1 0x21A s 5 23 50 A0 00 6D 
12:56:36:6460 Rx 1 0x246 s 4 00 01 0E 0F 
12:56:36:6470 Rx 1 0x130 s 8 E8 7F 20 00 BE 7F 2D CF 
12:56:36:6470 Rx 1 0x131 s 8 00 00 00 00 19 81 0D 95 
12:56:36:6480 Rx 1 0x100 s 8 00 00 63 00 10 00 E0 40 
12:56:36:6480 Rx 1 0x245 s 4 00 01 0E 0F 
12:56:36:6480 Rx 1 0x249 s 1 10 
12:56:36:6490 Rx 1 0x2B0 s 5 20 00 00 07 36 
12:56:36:6500 Rx 1 0x152 s 6 00 00 00 0C 0A B5 
12:56:36:6570 Rx 1 0x130 s 8 E8 7F 20 00 BE 7F 2E E8 
12:56:36:6570 Rx 1 0x131 s 8 00 00 00 00 19 81 0E B2 
12:56:36:6590 Rx 1 0x2B0 s 5 20 00 00 07 27 
12:56:36:6600 Rx 1 0x152 s 6 00 00 00 0C 0B A8 
12:56:36:6600 Rx 1 0x153 s 3 E9 77 F4 
12:56:36:6610 Rx 1 0x590 s 3 00 01 00 
12:56:36:6630 Rx 1 0x244 s 4 08 00 00 00 
12:56:36:6640 Rx 1 0x21A s 5 23 50 A0 10 A0 
12:56:36:6670 Rx 1 0x130 s 8 00 80 20 00 BE 7F 2F 3E 
12:56:36:6670 Rx 1 0x131 s 8 00 00 00 00 03 81 0F B8 
12:56:36:6680 Rx 1 0x100 s 8 00 00 63 00 10 00 F0 8D 
12:56:36:6680 Rx 1 0x240 s 5 BC 83 EB CB FF 
12:56:36:6690 Rx 1 0x2B0 s 5 20 00 00 07 D8 
12:56:36:6700 Rx 1 0x280 s 8 0F 01 FF 00 FD 58 03 B8 
12:56:36:6710 Rx 1 0x152 s 6 00 00 00 0C 0C FB 
12:56:36:6710 Rx 1 0x157 s 8 90 00 94 E0 E2 00 70 2B 
12:56:36:6710 Rx 1 0x23E s 5 55 BC B0 B1 E1 
12:56:36:6720 Rx 1 0x23F s 5 55 BC B0 B1 E1 
12:56:36:6720 Rx 1 0x251 s 3 00 0C 0C 
12:56:36:6730 Rx 1 0x2F0 s 7 00 00 08 99 00 01 28 
12:56:36:6730 Rx 1 0x362 s 8 15 49 24 06 00 10 01 58 
12:56:36:6730 Rx 1 0x614 s 1 00 
12:56:36:6740 Rx 1 0x615 s 2 00 00 
12:56:36:6770 Rx 1 0x130 s 8 00 80 20 00 BE 7F 20 85 
12:56:36:6770 Rx 1 0x131 s 8 00 00 00 00 03 81 00 03 
12:56:36:6780 Rx 1 0x241 s 5 BC 83 EB CB FF 
12:56:36:6790 Rx 1 0x2B0 s 5 20 00 00 07 C9 
12:56:36:6800 Rx 1 0x152 s 6 00 00 00 0C 0D E6 
12:56:36:6810 Rx 1 0x153 s 3 E9 87 8B 
12:56:36:6810 Rx 1 0x210 s 3 B0 64 D4 
12:56:36:6810 Rx 1 0x260 s 2 00 00 
12:56:36:6820 Rx 1 0x247 s 2 22 24 
12:56:36:6830 Rx 1 0x21A s 5 23 50 A0 20 EA 
12:56:36:6870 Rx 1 0x130 s 8 E8 7F 20 00 A8 7F 21 4E 
12:56:36:6870 Rx 1 0x131 s 8 00 00 00 00 03 81 01 1E 
12:56:36:6880 Rx 1 0x100 s 8 00 00 63 00 10 00 00 F2 
12:56:36:6880 Rx 1 0x242 s 4 7B D4 20 8F 
12:56:36:6890 Rx 1 0x2B0 s 5 20 00 00 07 FA 
12:56:36:6900 Rx 1 0x152 s 6 00 00 00 0C 0E C1 
12:56:36:6900 Rx 1 0x613 s 4 D2 BE 8A 04 
12:56:36:6910 Rx 1 0x243 s 2 08 00 
12:56:36:6960 Rx 1 0x246 s 4 00 01 0F 0E 
12:56:36:6970 Rx 1 0x130 s 8 E8 7F 20 00 A8 7F 22 69 
12:56:36:6970 Rx 1 0x131 s 8 00 00 00 00 03 81 02 39 
12:56:36:6980 Rx 1 0x245 s 4 00 01 0F 0E 
12:56:36:6980 Rx 1 0x249 s 1 10 
12:56:36:6990 Rx 1 0x2B0 s 5 20 00 00 07 EB 
12:56:36:7000 Rx 1 0x152 s 6 00 00 00 0C 0F DC 
12:56:36:7010 Rx 1 0x153 s 3 E9 97 46 
12:56:36:7010 Rx 1 0x4F0 s 8 03 00 00 40 00 FF FF 4A 
12:56:36:7010 Rx 1 0x0F2 s 6 FF FF FF FF 55 55 
12:56:36:7020 Rx 1 0x254 s 4 1A 11 50 C0 
12:56:36:7030 Rx 1 0x21A s 5 23 50 A0 30 27 
12:56:36:7070 Rx 1 0x130 s 8 E8 7F 20 00 BE 7F 23 69 
12:56:36:7070 Rx 1 0x131 s 8 00 00 00 00 EE 80 03 7D 
12:56:36:7080 Rx 1 0x100 s 8 00 00 63 00 10 00 10 3F 
12:56:36:7090 Rx 1 0x2B0 s 5 20 00 00 07 9C 
12:56:36:7100 Rx 1 0x152 s 6 00 00 00 0C 00 67 
12:56:36:7110 Rx 1 0x590 s 3 00 01 00 
12:56:36:7120 Rx 1 0x37B s 8 00 00 FF FF FF FF FF 0B 
12:56:36:7130 Rx 1 0x244 s 4 08 00 00 00 
12:56:36:7170 Rx 1 0x130 s 8 E8 7F 20 00 BE 7F 24 3A 
12:56:36:7170 Rx 1 0x131 s 8 00 00 00 00 EE 80 04 2E 
12:56:36:7180 Rx 1 0x3AA s 6 1E 00 CD FF 40 9C 
12:56:36:7190 Rx 1 0x2B0 s 5 20 00 00 07 8D 
12:56:36:7200 Rx 1 0x280 s 8 0F 01 FF 00 FD 58 03 B8 
12:56:36:7210 Rx 1 0x152 s 6 00 00 00 0C 01 7A 
12:56:36:7210 Rx 1 0x153 s 3 E9 A7 0C 
12:56:36:7210 Rx 1 0x2F0 s 7 00 00 08 99 00 01 28 
12:56:36:7220 Rx 1 0x362 s 8 15 49 24 06 00 10 01 58 
12:56:36:7220 Rx 1 0x21A s 5 23 50 A0 40 7E 
12:56:36:7270 Rx 1 0x130 s 8 00 80 20 00 BE 7F 25 EC 
12:56:36:7270 Rx 1 0x131 s 8 00 00 00 00 EE 80 05 33 
12:56:36:7280 Rx 1 0x100 s 8 00 00 63 00 10 00 20 75 
12:56:36:7290 Rx 1 0x2B0 s 5 20 00 00 07 BE 
12:56:36:7300 Rx 1 0x152 s 6 00 00 00 0C 02 5D 
12:56:36:7310 Rx 1 0x151 s 3 3C 68 18 
12:56:36:7310 Rx 1 0x150 s 8 00 00 4A 64 00 80 86 00 
12:56:36:7320 Rx 1 0x155 s 7 FF 7F 00 18 00 30 6D 
12:56:36:7320 Rx 1 0x156 s 7 FF 7F 00 08 E8 33 5E 
12:56:36:7320 Rx 1 0x247 s 2 22 24 
12:56:36:7330 Rx 1 0x298 s 3 F8 9F 67 
12:56:36:7330 Rx 1 0x4CF s 6 00 00 00 00 00 00 
12:56:36:7370 Rx 1 0x130 s 8 00 80 20 00 BE 7F 26 CB 
12:56:36:7370 Rx 1 0x131 s 8 00 00 00 00 EE 80 06 14 
12:56:36:7390 Rx 1 0x2B0 s 5 20 00 00 07 AF 
12:56:36:7400 Rx 1 0x153 s 3 E9 B7 C1 
12:56:36:7400 Rx 1 0x152 s 6 00 00 00 0C 03 40 
12:56:36:7410 Rx 1 0x243 s 2 08 00 
12:56:36:7420 Rx 1 0x21A s 5 23 50 A0 50 B3 
12:56:36:7460 Rx 1 0x246 s 4 00 01 00 01 
12:56:36:7470 Rx 1 0x130 s 8 00 80 20 00 A8 7F 27 CB 
12:56:36:7470 Rx 1 0x131 s 8 00 00 00 00 19 81 07 47 
12:56:36:7480 Rx 1 0x100 s 8 00 00 63 00 10 00 30 B8 
12:56:36:7480 Rx 1 0x245 s 4 00 01 00 01 
12:56:36:7480 Rx 1 0x249 s 1 10 
12:56:36:7490 Rx 1 0x4D1 s 7 00 00 00 00 00 00 00 
12:56:36:7490 Rx 1 0x2B0 s 5 20 00 00 07 50 
12:56:36:7500 Rx 1 0x152 s 6 00 00 00 0C 04 13 
12:56:36:7550 Rx 1 0x4D3 s 7 00 00 00 00 00 00 00 
12:56:36:7570 Rx 1 0x130 s 8 00 80 20 00 A8 7F 28 70 
12:56:36:7570 Rx 1 0x131 s 8 00 00 00 00 19 81 08 FC 
12:56:36:7590 Rx 1 0x2B0 s 5 20 00 00 07 41 
12:56:36:7600 Rx 1 0x152 s 6 00 00 00 0C 05 0E 
12:56:36:7610 Rx 1 0x153 s 3 E9 C7 98 
12:56:36:7610 Rx 1 0x590 s 3 00 01 00 
12:56:36:7610 Rx 1 0x21A s 5 23 50 A0 60 F9 
12:56:36:7630 Rx 1 0x244 s 4 08 00 00 00 
12:56:36:7670 Rx 1 0x130 s 8 E8 7F 20 00 A8 7F 29 A6 
12:56:36:7670 Rx 1 0x131 s 8 00 00 00 00 03 81 09 F6 
12:56:36:7680 Rx 1 0x100 s 8 00 00 63 00 10 00 40 E1 
12:56:36:7690 Rx 1 0x2B0 s 5 20 00 00 07 72 
12:56:36:7700 Rx 1 0x280 s 8 0F 01 FF 00 FD 58 03 B8 
12:56:36:7710 Rx 1 0x152 s 6 00 00 00 0C 06 29 
12:56:36:7710 Rx 1 0x157 s 8 90 00 94 F0 C7 00 70 2B 
12:56:36:7710 Rx 1 0x23E s 5 55 BC B0 B1 E1 
12:56:36:7720 Rx 1 0x23F s 5 55 BC B0 B1 E1 
12:56:36:7720 Rx 1 0x240 s 5 BC 83 EB CB FF 
12:56:36:7720 Rx 1 0x251 s 3 00 0D 0D 
12:56:36:7730 Rx 1 0x2F0 s 7 00 00 08 99 00 01 28 
12:56:36:7730 Rx 1 0x362 s 8 15 49 24 06 00 10 01 58 
12:56:36:7740 Rx 1 0x614 s 1 00 
12:56:36:7740 Rx 1 0x615 s 2 00 00 
12:56:36:7770 Rx 1 0x130 s 8 E8 7F 20 00 A8 7F 2A 81 
12:56:36:7770 Rx 1 0x131 s 8 00 00 00 00 03 81 0A D1 
12:56:36:7790 Rx 1 0x2B0 s 5 20 00 00 07 63 
12:56:36:7800 Rx 1 0x152 s 6 00 00 00 0C 07 34 
12:56:36:7800 Rx 1 0x153 s 3 E9 D7 55 
12:56:36:7810 Rx 1 0x21A s 5 23 50 A0 70 34 
12:56:36:7810 Rx 1 0x210 s 3 B0 74 C4 
12:56:36:7810 Rx 1 0x260 s 2 00 00 
12:56:36:7820 Rx 1 0x247 s 2 22 24 
12:56:36:7830 Rx 1 0x380 s 8 A2 82 FF 00 00 00 30 AC 
12:56:36:7840 Rx 1 0x43A s 2 00 00 
12:56:36:7840 Rx 1 0x4CA s 8 FC 03 00 00 8E 0E 0E 2E 
12:56:36:7840 Rx 1 0x241 s 5 BC 83 EB CB FF 
12:56:36:7850 Rx 1 0x4CD s 4 77 77 01 00 
12:56:36:7870 Rx 1 0x130 s 8 E8 7F 20 00 A8 7F 2B 9C 
12:56:36:7870 Rx 1 0x131 s 8 00 00 00 00 03 81 0B CC 
12:56:36:7880 Rx 1 0x100 s 8 00 00 63 00 10 00 50 2C 
12:56:36:7880 Rx 1 0x242 s 4 7B D4 30 9F 
12:56:36:7890 Rx 1 0x2B0 s 5 20 00 00 07 14 
12:56:36:7900 Rx 1 0x613 s 4 D2 BE 8A 04 
12:56:36:7910 Rx 1 0x152 s 6 00 00 00 0C 08 8F 
12:56:36:7910 Rx 1 0x243 s 2 08 00 
12:56:36:7960 Rx 1 0x246 s 4 00 01 01 00 
12:56:36:7970 Rx 1 0x130 s 8 E8 7F 20 00 A8 7F 2C CF 
12:56:36:7970 Rx 1 0x131 s 8 00 00 00 00 03 81 0C 9F 
12:56:36:7980 Rx 1 0x245 s 4 00 01 01 00 
12:56:36:7980 Rx 1 0x249 s 1 10 
12:56:36:7990 Rx 1 0x2B0 s 5 20 00 00 07 05 
12:56:36:8000 Rx 1 0x21A s 5 23 50 A0 80 4B 
12:56:36:8000 Rx 1 0x4F0 s 8 10 00 00 40 00 FF FF 4A 
12:56:36:8010 Rx 1 0x152 s 6 00 00 00 0C 09 92 
12:56:36:8010 Rx 1 0x153 s 3 E9 E7 1F 
12:56:36:8020 Rx 1 0x0F2 s 6 FF FF FF FF 66 66 
12:56:36:8020 Rx 1 0x254 s 4 1A 11 60 8A 
12:56:36:8070 Rx 1 0x130 s 8 00 80 20 00 BE 7F 2D 04 
12:56:36:8070 Rx 1 0x131 s 8 00 00 00 00 03 81 0D 82 
12:56:36:8080 Rx 1 0x100 s 8 00 00 63 00 10 00 60 66 
12:56:36:8090 Rx 1 0x2B0 s 5 20 00 00 07 36 
12:56:36:8100 Rx 1 0x152 s 6 00 00 00 0C 0A B5 
12:56:36:8110 Rx 1 0x590 s 3 00 01 00 
12:56:36:8110 Rx 1 0x37B s 8 00 00 FF FF FF FF FF 0C 
12:56:36:8130 Rx 1 0x244 s 4 08 00 00 00 
12:56:36:8170 Rx 1 0x130 s 8 00 80 20 00 BE 7F 2E 23 
12:56:36:8170 Rx 1 0x131 s 8 00 00 00 00 03 81 0E A5 
12:56:36:8180 Rx 1 0x21A s 5 23 50 A0 90 86 
12:56:36:8190 Rx 1 0x2B0 s 5 20 00 00 07 27 
12:56:36:8200 Rx 1 0x280 s 8 0F 01 FF 00 FD 58 03 B8 
12:56:36:8210 Rx 1 0x152 s 6 00 00 00 0C 0B A8 
12:56:36:8210 Rx 1 0x153 s 3 E9 F7 D2 
12:56:36:8210 Rx 1 0x27D s 8 00 00 00 00 00 00 00 00 
12:56:36:8220 Rx 1 0x2F0 s 7 00 00 08 99 00 01 28 
12:56:36:8220 Rx 1 0x362 s 8 15 49 24 06 00 10 01 58 
12:56:36:8230 Rx 1 0x365 s 6 00 54 00 02 60 7D 
12:56:36:8230 Rx 1 0x4D0 s 2 00 00 
12:56:36:8270 Rx 1 0x130 s 8 00 80 20 00 D4 7F 2F 61 
12:56:36:8270 Rx 1 0x131 s 8 00 00 00 00 EE 80 0F E1 
12:56:36:8280 Rx 1 0x100 s 8 00 00 63 00 10 00 70 AB 
12:56:36:8280 Rx 1 0x3AA s 6 1E 00 CD FF 40 9C 
12:56:36:8290 Rx 1 0x2B0 s 5 20 00 00 07 D8 
12:56:36:8300 Rx 1 0x152 s 6 00 00 00 0C 0C FB 
12:56:36:8310 Rx 1 0x150 s 8 00 00 4A 64 00 80 86 00 
12:56:36:8310 Rx 1 0x151 s 3 3C 68 18 
12:56:36:8320 Rx 1 0x155 s 7 FF 7F 00 18 00 40 34 
12:56:36:8320 Rx 1 0x156 s 7 FF 7F 00 08 E8 43 07 
12:56:36:8330 Rx 1 0x247 s 2 22 24 
12:56:36:8330 Rx 1 0x310 s 3 00 84 84 
12:56:36:8340 Rx 1 0x4CF s 6 00 00 00 00 00 00 
12:56:36:8370 Rx 1 0x130 s 8 00 80 20 00 D4 7F 20 DA 
12:56:36:8370 Rx 1 0x131 s 8 00 00 00 00 EE 80 00 5A 
12:56:36:8380 Rx 1 0x21A s 5 23 50 A0 A0 CC 
12:56:36:8390 Rx 1 0x2B0 s 5 20 00 00 07 C9 
12:56:36:8400 Rx 1 0x152 s 6 00 00 00 0C 0D E6 
12:56:36:8410 Rx 1 0x153 s 3 E9 07 AD 
12:56:36:8410 Rx 1 0x243 s 2 08 00 
12:56:36:8460 Rx 1 0x246 s 4 00 01 02 03 
12:56:36:8470 Rx 1 0x130 s 8 E8 7F 20 00 D4 7F 21 0C 
12:56:36:8470 Rx 1 0x131 s 8 00 00 00 00 03 81 01 1E 
12:56:36:8480 Rx 1 0x100 s 8 00 00 63 00 10 00 80 D4 
12:56:36:8480 Rx 1 0x245 s 4 00 01 02 03 
12:56:36:8480 Rx 1 0x249 s 1 10 
12:56:36:8490 Rx 1 0x2B0 s 5 20 00 00 07 FA 
12:56:36:8500 Rx 1 0x152 s 6 00 00 00 0C 0E C1 
12:56:36:8570 Rx 1 0x130 s 8 E8 7F 20 00 D4 7F 22 2B 
12:56:36:8570 Rx 1 0x131 s 8 00 00 00 00 03 81 02 39 
12:56:36:8580 Rx 1 0x21A s 5 23 50 A0 B0 01 
12:56:36:8590 Rx 1 0x2B0 s 5 20 00 00 07 EB 
12:56:36:8600 Rx 1 0x152 s 6 00 00 00 0C 0F DC 
12:56:36:8610 Rx 1 0x153 s 3 E9 17 60 
12:56:36:8610 Rx 1 0x590 s 3 00 01 00 
12:56:36:8630 Rx 1 0x244 s 4 08 00 00 00 
12:56:36:8670 Rx 1 0x130 s 8 E8 7F 20 00 BE 7F 23 69 
12:56:36:8670 Rx 1 0x131 s 8 00 00 00 00 03 81 03 24 
12:56:36:8680 Rx 1 0x100 s 8 00 00 63 00 10 00 90 19 
12:56:36:8680 Rx 1 0x240 s 5 BC 83 EB CB FF 
12:56:36:8690 Rx 1 0x2B0 s 5 20 00 00 07 9C 
12:56:36:8700 Rx 1 0x280 s 8 0F 01 FF 00 FD 58 03 B8 
12:56:36:8710 Rx 1 0x152 s 6 00 00 00 0C 00 67 
12:56:36:8710 Rx 1 0x157 s 8 90 00 94 00 09 00 70 2B 
12:56:36:8710 Rx 1 0x23E s 5 55 BC B0 B1 E1 
12:56:36:8720 Rx 1 0x23F s 5 55 BC B0 B1 E1 
12:56:36:8720 Rx 1 0x251 s 3 00 0E 0E 
12:56:36:8730 Rx 1 0x2F0 s 7 00 00 08 99 00 01 28 
12:56:36:8730 Rx 1 0x362 s 8 15 49 24 06 00 10 01 58 
12:56:36:8730 Rx 1 0x614 s 1 00 
12:56:36:8740 Rx 1 0x615 s 2 00 00 
12:56:36:8770 Rx 1 0x130 s 8 E8 7F 20 00 BE 7F 24 3A 
12:56:36:8770 Rx 1 0x131 s 8 00 00 00 00 03 81 04 77 
12:56:36:8770 Rx 1 0x21A s 5 23 50 A0 C0 58 
12:56:36:8780 Rx 1 0x241 s 5 BC 83 EB CB FF 
12:56:36:8790 Rx 1 0x2B0 s 5 20 00 00 07 8D 
12:56:36:8800 Rx 1 0x260 s 2 00 00 
12:56:36:8810 Rx 1 0x152 s 6 00 00 00 0C 01 7A 
12:56:36:8810 Rx 1 0x153 s 3 E9 27 2A 
12:56:36:8810 Rx 1 0x210 s 3 B0 84 34 
12:56:36:8820 Rx 1 0x247 s 2 22 24 
12:56:36:8870 Rx 1 0x130 s 8 E8 7F 20 00 BE 7F 25 27 
12:56:36:8870 Rx 1 0x131 s 8 00 00 00 00 03 81 05 6A 
12:56:36:8880 Rx 1 0x100 s 8 00 00 63 00 10 00 A0 53 
12:56:36:8880 Rx 1 0x242 s 4 7B D4 40 EF 
12:56:36:8890 Rx 1 0x2B0 s 5 20 00 00 07 BE 
12:56:36:8900 Rx 1 0x152 s 6 00 00 00 0C 02 5D 
12:56:36:8910 Rx 1 0x613 s 4 D2 BE 8A 04 
12:56:36:8910 Rx 1 0x243 s 2 08 00 
12:56:36:8960 Rx 1 0x21A s 5 23 50 A0 D0 95 
12:56:36:8970 Rx 1 0x130 s 8 E8 7F 20 00 BE 7F 26 00 
12:56:36:8970 Rx 1 0x131 s 8 00 00 00 00 03 81 06 4D 
12:56:36:8970 Rx 1 0x246 s 4 00 01 03 02 
12:56:36:8980 Rx 1 0x249 s 1 10 
12:56:36:8980 Rx 1 0x245 s 4 00 01 03 02 
12:56:36:8990 Rx 1 0x2B0 s 5 20 00 00 07 AF 
12:56:36:9000 Rx 1 0x4F0 s 8 13 00 00 40 00 FF FF 4A 
12:56:36:9010 Rx 1 0x152 s 6 00 00 00 0C 03 40 
12:56:36:9010 Rx 1 0x153 s 3 E9 37 E7 
12:56:36:9010 Rx 1 0x0F2 s 6 FF FF FF FF 77 77 
12:56:36:9020 Rx 1 0x254 s 4 1A 11 70 47 
12:56:36:9070 Rx 1 0x130 s 8 E8 7F 20 00 D4 7F 27 42 
12:56:36:9070 Rx 1 0x131 s 8 00 00 00 00 EE 80 07 09 
12:56:36:9080 Rx 1 0x100 s 8 00 00 63 00 10 00 B0 9E 
12:56:36:9090 Rx 1 0x2B0 s 5 20 00 00 07 50 
12:56:36:9100 Rx 1 0x37B s 8 00 00 FF FF FF FF FF 0D 
12:56:36:9110 Rx 1 0x152 s 6 00 00 00 0C 04 13 
12:56:36:9110 Rx 1 0x590 s 3 00 01 00 
12:56:36:9130 Rx 1 0x244 s 4 08 00 00 00 
12:56:36:9150 Rx 1 0x21A s 5 23 50 A0 E0 DF 
12:56:36:9170 Rx 1 0x130 s 8 E8 7F 20 00 D4 7F 28 F9 
12:56:36:9170 Rx 1 0x131 s 8 00 00 00 00 EE 80 08 B2 
12:56:36:9190 Rx 1 0x2B0 s 5 20 00 00 07 41 
12:56:36:9200 Rx 1 0x280 s 8 0F 01 FF 00 FD 58 03 B8 
12:56:36:9210 Rx 1 0x152 s 6 00 00 00 0C 05 0E 
12:56:36:9210 Rx 1 0x153 s 3 E9 47 BE 
12:56:36:9210 Rx 1 0x2F0 s 7 00 00 08 99 00 01 28 
12:56:36:9220 Rx 1 0x362 s 8 15 49 24 06 00 10 01 58 
12:56:36:9270 Rx 1 0x130 s 8 E8 7F 20 00 BE 7F 29 BB 
12:56:36:9270 Rx 1 0x131 s 8 00 00 00 00 03 81 09 F6 
12:56:36:9280 Rx 1 0x100 s 8 00 00 63 00 10 00 C0 C7 
12:56:36:9290 Rx 1 0x2B0 s 5 20 00 00 07 72 
12:56:36:9300 Rx 1 0x152 s 6 00 00 00 0C 06 29 
12:56:36:9310 Rx 1 0x151 s 3 3C 68 18 
12:56:36:9310 Rx 1 0x150 s 8 00 00 4A 64 00 80 86 00 
12:56:36:9320 Rx 1 0x155 s 7 FF 7F 00 18 00 50 F9 
12:56:36:9320 Rx 1 0x156 s 7 FF 7F 00 08 E8 53 CA 
12:56:36:9320 Rx 1 0x247 s 2 22 24 
12:56:36:9330 Rx 1 0x298 s 3 F8 AF 57 
12:56:36:9330 Rx 1 0x4CF s 6 00 00 00 00 00 00 
12:56:36:9350 Rx 1 0x21A s 5 23 50 A0 F0 12 
12:56:36:9370 Rx 1 0x130 s 8 E8 7F 20 00 BE 7F 2A 9C 
12:56:36:9370 Rx 1 0x131 s 8 00 00 00 00 03 81 0A D1 
12:56:36:9380 Rx 1 0x3AA s 6 1E 00 CD FF 40 9C 
12:56:36:9390 Rx 1 0x2B0 s 5 20 00 00 07 63 
12:56:36:9400 Rx 1 0x153 s 3 E9 57 73 
12:56:36:9400 Rx 1 0x152 s 6 00 00 00 0C 07 34 
12:56:36:9410 Rx 1 0x243 s 2 08 00 
12:56:36:9460 Rx 1 0x246 s 4 00 01 04 05 
12:56:36:9470 Rx 1 0x130 s 8 E8 7F 20 00 BE 7F 2B 81 
12:56:36:9470 Rx 1 0x131 s 8 00 00 00 00 EE 80 0B 95 
12:56:36:9480 Rx 1 0x100 s 8 00 00 63 00 10 00 D0 0A 
12:56:36:9480 Rx 1 0x245 s 4 00 01 04 05 
12:56:36:9480 Rx 1 0x249 s 1 10 
12:56:36:9490 Rx 1 0x2B0 s 5 20 00 00 07 14 
12:56:36:9500 Rx 1 0x152 s 6 00 00 00 0C 08 8F 
12:56:36:9530 Rx 1 0x21A s 5 23 50 A0 00 6D 
12:56:36:9570 Rx 1 0x130 s 8 E8 7F 20 00 BE 7F 2C D2 
12:56:36:9570 Rx 1 0x131 s 8 00 00 00 00 EE 80 0C C6 
12:56:36:9590 Rx 1 0x2B0 s 5 20 00 00 07 05 
12:56:36:9600 Rx 1 0x152 s 6 00 00 00 0C 09 92 
12:56:36:9600 Rx 1 0x153 s 3 E9 67 39 
12:56:36:9610 Rx 1 0x590 s 3 00 01 00 
12:56:36:9630 Rx 1 0x244 s 4 08 00 00 00 
12:56:36:9670 Rx 1 0x130 s 8 E8 7F 20 00 BE 7F 2D CF 
12:56:36:9670 Rx 1 0x131 s 8 00 00 00 00 03 81 0D 82 
12:56:36:9680 Rx 1 0x100 s 8 00 00 63 00 10 00 E0 40 
12:56:36:9690 Rx 1 0x2B0 s 5 20 00 00 07 36 
12:56:36:9700 Rx 1 0x280 s 8 0F 01 FF 00 FD 58 03 B8 
12:56:36:9700 Rx 1 0x152 s 6 00 00 00 0C 0A B5 
12:56:36:9710 Rx 1 0x157 s 8 90 00 94 10 2C 00 70 2B 
12:56:36:9710 Rx 1 0x23E s 5 55 BC B0 B1 E1 
12:56:36:9720 Rx 1 0x23F s 5 55 BC B0 B1 E1 
12:56:36:9720 Rx 1 0x251 s 3 00 0F 0F 
12:56:36:9720 Rx 1 0x2F0 s 7 00 00 08 99 00 01 28 
12:56:36:9730 Rx 1 0x362 s 8 15 49 24 06 00 10 01 58 
12:56:36:9730 Rx 1 0x21A s 5 23 50 A0 10 A0 
12:56:36:9730 Rx 1 0x614 s 1 00 
12:56:36:9740 Rx 1 0x615 s 2 00 00 
12:56:36:9770 Rx 1 0x130 s 8 E8 7F 20 00 BE 7F 2E E8 
12:56:36:9770 Rx 1 0x131 s 8 00 00 00 00 03 81 0E A5 
12:56:36:9790 Rx 1 0x2B0 s 5 20 00 00 07 27 
12:56:36:9800 Rx 1 0x153 s 3 E9 77 F4 
12:56:36:9800 Rx 1 0x152 s 6 00 00 00 0C 0B A8 
12:56:36:9810 Rx 1 0x210 s 3 B0 94 24 
12:56:36:9810 Rx 1 0x260 s 2 00 00 
12:56:36:9820 Rx 1 0x247 s 2 22 24 
12:56:36:9870 Rx 1 0x130 s 8 00 80 20 00 A8 7F 2F 23 
12:56:36:9870 Rx 1 0x131 s 8 00 00 00 00 03 81 0F B8 
12:56:36:9880 Rx 1 0x100 s 8 00 00 63 00 10 00 F0 8D 
12:56:36:9880 Rx 1 0x240 s 5 BC 83 EB CB FF 
12:56:36:9890 Rx 1 0x2B0 s 5 20 00 00 07 D8 
12:56:36:9900 Rx 1 0x613 s 4 D2 BE 8A 04 
12:56:36:9910 Rx 1 0x152 s 6 00 00 00 0C 0C FB 
12:56:36:9910 Rx 1 0x241 s 5 BC 83 EB CB FF 
12:56:36:9910 Rx 1 0x243 s 2 08 00 
12:56:36:9930 Rx 1 0x21A s 5 23 50 A0 20 EA 
12:56:36:9940 Rx 1 0x242 s 4 7B D4 50 FF 
12:56:36:9960 Rx 1 0x246 s 4 00 01 05 04 
12:56:36:9970 Rx 1 0x130 s 8 00 80 20 00 A8 7F 20 98 
12:56:36:9970 Rx 1 0x131 s 8 00 00 00 00 03 81 00 03 
12:56:36:9980 Rx 1 0x245 s 4 00 01 05 04 
12:56:36:9980 Rx 1 0x249 s 1 10 
12:56:36:9980 Rx 1 0x4D1 s 7 00 00 00 00 00 00 00 
12:56:36:9990 Rx 1 0x2B0 s 5 20 00 00 07 C9 
12:56:37:0000 Rx 1 0x152 s 6 00 00 00 0C 0D E6 
12:56:37:0010 Rx 1 0x153 s 3 E9 87 8B 
12:56:37:0010 Rx 1 0x4F0 s 8 00 00 00 40 00 FF FF 4A 
12:56:37:0010 Rx 1 0x0F2 s 6 FF FF FF FF 88 88 
12:56:37:0020 Rx 1 0x254 s 4 1A 11 80 38 
12:56:37:0050 Rx 1 0x4D3 s 7 00 00 00 00 00 00 00 
12:56:37:0070 Rx 1 0x130 s 8 E8 7F 20 00 D4 7F 21 0C 
12:56:37:0070 Rx 1 0x131 s 8 00 00 00 00 03 81 01 1E 
12:56:37:0080 Rx 1 0x100 s 8 00 00 63 00 10 00 00 F2 
12:56:37:0090 Rx 1 0x2B0 s 5 20 00 00 07 FA 
12:56:37:0090 Rx 1 0x37B s 8 00 00 FF FF FF FF FF 0E 
12:56:37:0100 Rx 1 0x152 s 6 00 00 00 0C 0E C1 
12:56:37:0110 Rx 1 0x590 s 3 00 01 00 
12:56:37:0120 Rx 1 0x21A s 5 23 50 A0 30 27 
12:56:37:0130 Rx 1 0x244 s 4 08 00 00 00 
12:56:37:0170 Rx 1 0x130 s 8 E8 7F 20 00 D4 7F 22 2B 
12:56:37:0170 Rx 1 0x131 s 8 00 00 00 00 03 81 02 39 
12:56:37:0190 Rx 1 0x2B0 s 5 20 00 00 07 EB 
12:56:37:0200 Rx 1 0x280 s 8 0F 01 FF 00 FD 58 03 B8 
12:56:37:0210 Rx 1 0x152 s 6 00 00 00 0C 0F DC 
12:56:37:0210 Rx 1 0x153 s 3 E9 97 46 
12:56:37:0210 Rx 1 0x2F0 s 7 00 00 08 99 00 01 28 
12:56:37:0220 Rx 1 0x362 s 8 15 49 24 06 00 10 01 58 
12:56:37:0270 Rx 1 0x130 s 8 00 80 20 00 A8 7F 23 BF 
12:56:37:0270 Rx 1 0x131 s 8 00 00 00 00 03 81 03 24 
12:56:37:0280 Rx 1 0x100 s 8 00 00 63 00 10 00 10 3F 
12:56:37:0290 Rx 1 0x2B0 s 5 20 00 00 07 9C 
12:56:37:0300 Rx 1 0x152 s 6 00 00 00 0C 00 67 
12:56:37:0310 Rx 1 0x21A s 5 23 50 A0 40 7E 
12:56:37:0310 Rx 1 0x150 s 8 00 00 4A 64 00 80 86 00 
12:56:37:0320 Rx 1 0x151 s 3 3C 68 18 
12:56:37:0320 Rx 1 0x155 s 7 FF 7F 00 18 00 60 B3 
12:56:37:0320 Rx 1 0x156 s 7 FF 7F 00 08 E8 63 80 
12:56:37:0330 Rx 1 0x247 s 2 22 24 
12:56:37:0330 Rx 1 0x310 s 3 00 94 94 
12:56:37:0340 Rx 1 0x380 s 8 A2 82 FF 00 00 00 40 DC 
12:56:37:0340 Rx 1 0x43A s 2 00 00 
12:56:37:0340 Rx 1 0x4CA s 8 FC 03 00 00 8E 0E 0E 2E 
12:56:37:0350 Rx 1 0x4CD s 4 77 77 01 00 
12:56:37:0350 Rx 1 0x4CF s 6 00 00 00 00 00 00 
12:56:37:0350 Rx 1 0x501 s 5 00 00 00 0A 0A 
12:56:37:0370 Rx 1 0x130 s 8 00 80 20 00 A8 7F 24 EC 
12:56:37:0370 Rx 1 0x131 s 8 00 00 00 00 03 81 04 77 
12:56:37:0390 Rx 1 0x2B0 s 5 20 00 00 07 8D 
12:56:37:0400 Rx 1 0x152 s 6 00 00 00 0C 01 7A 
12:56:37:0400 Rx 1 0x153 s 3 E9 A7 0C 
12:56:37:0410 Rx 1 0x495 s 1 00 
12:56:37:0410 Rx 1 0x243 s 2 08 00 
12:56:37:0460 Rx 1 0x246 s 4 00 01 06 07 
12:56:37:0470 Rx 1 0x130 s 8 E8 7F 20 00 BE 7F 25 27 
12:56:37:0470 Rx 1 0x131 s 8 00 00 00 00 03 81 05 6A 
12:56:37:0480 Rx 1 0x100 s 8 00 00 63 00 10 00 20 75 
12:56:37:0480 Rx 1 0x245 s 4 00 01 06 07 
12:56:37:0480 Rx 1 0x249 s 1 10 
12:56:37:0490 Rx 1 0x3AA s 6 1E 00 CD FF 40 9C 
12:56:37:0490 Rx 1 0x2B0 s 5 20 00 00 07 BE 
12:56:37:0500 Rx 1 0x21A s 5 23 50 A0 50 B3 
12:56:37:0510 Rx 1 0x152 s 6 00 00 00 0C 02 5D 
12:56:37:0570 Rx 1 0x130 s 8 E8 7F 20 00 BE 7F 26 00 
12:56:37:0570 Rx 1 0x131 s 8 00 00 00 00 03 81 06 4D 
12:56:37:0590 Rx 1 0x2B0 s 5 20 00 00 07 AF 
12:56:37:0600 Rx 1 0x152 s 6 00 00 00 0C 03 40 
12:56:37:0600 Rx 1 0x153 s 3 E9 B7 C1 
12:56:37:0610 Rx 1 0x590 s 3 00 01 00 
12:56:37:0630 Rx 1 0x244 s 4 08 00 00 00 
12:56:37:0670 Rx 1 0x130 s 8 E8 7F 20 00 D4 7F 27 42 
12:56:37:0670 Rx 1 0x131 s 8 00 00 00 00 03 81 07 50 
12:56:37:0680 Rx 1 0x100 s 8 00 00 63 00 10 00 30 B8 
12:56:37:0680 Rx 1 0x240 s 5 BC 83 EB CB FF 
12:56:37:0690 Rx 1 0x2B0 s 5 20 00 00 07 50 
12:56:37:0700 Rx 1 0x21A s 5 23 50 A0 60 F9 
12:56:37:0700 Rx 1 0x280 s 8 0F 01 FF 00 FD 58 03 B8 
12:56:37:0710 Rx 1 0x152 s 6 00 00 00 0C 04 13 
12:56:37:0710 Rx 1 0x157 s 8 90 00 94 20 43 00 70 2B 
12:56:37:0720 Rx 1 0x23E s 5 55 BC B0 B1 E1 
12:56:37:0720 Rx 1 0x23F s 5 55 BC B0 B1 E1 
12:56:37:0720 Rx 1 0x251 s 3 00 00 00 
12:56:37:0730 Rx 1 0x27D s 8 00 00 00 00 00 00 00 00 
12:56:37:0730 Rx 1 0x2F0 s 7 00 00 08 99 00 01 28 
12:56:37:0740 Rx 1 0x362 s 8 15 49 24 06 00 10 01 58 
12:56:37:0740 Rx 1 0x365 s 6 00 54 00 02 60 7D 
12:56:37:0740 Rx 1 0x4D0 s 2 00 00 
12:56:37:0740 Rx 1 0x532 s 1 00 
12:56:37:0750 Rx 1 0x614 s 1 00 
12:56:37:0750 Rx 1 0x615 s 2 00 00 
12:56:37:0770 Rx 1 0x130 s 8 E8 7F 20 00 D4 7F 28 F9 
12:56:37:0770 Rx 1 0x131 s 8 00 00 00 00 03 81 08 EB 
12:56:37:0780 Rx 1 0x241 s 5 BC 83 EB CB FF 
12:56:37:0790 Rx 1 0x2B0 s 5 20 00 00 07 41 
12:56:37:0800 Rx 1 0x152 s 6 00 00 00 0C 05 0E 
12:56:37:0810 Rx 1 0x153 s 3 E9 C7 98 
12:56:37:0810 Rx 1 0x210 s 3 B0 A4 14 
12:56:37:0810 Rx 1 0x260 s 2 00 00 
12:56:37:0820 Rx 1 0x247 s 2 22 24 
12:56:37:0870 Rx 1 0x130 s 8 E8 7F 20 00 BE 7F 29 BB 
12:56:37:0870 Rx 1 0x131 s 8 00 00 00 00 EE 80 09 AF 
12:56:37:0880 Rx 1 0x100 s 8 00 00 63 00 10 00 40 E1 
12:56:37:0880 Rx 1 0x242 s 4 7B D4 60 CF 
12:56:37:0890 Rx 1 0x2B0 s 5 20 00 00 07 72 
12:56:37:0890 Rx 1 0x21A s 5 23 50 A0 70 34 
12:56:37:0900 Rx 1 0x613 s 4 D2 BE 8A 04 
12:56:37:0910 Rx 1 0x152 s 6 00 00 00 0C 06 29 
12:56:37:0910 Rx 1 0x243 s 2 08 00 
12:56:37:0960 Rx 1 0x246 s 4 00 01 07 06 
12:56:37:0970 Rx 1 0x130 s 8 E8 7F 20 00 BE 7F 2A 9C 
12:56:37:0970 Rx 1 0x131 s 8 00 00 00 00 EE 80 0A 88 
12:56:37:0980 Rx 1 0x245 s 4 00 01 07 06 
12:56:37:0980 Rx 1 0x249 s 1 10 
12:56:37:0990 Rx 1 0x2B0 s 5 20 00 00 07 63 
12:56:37:1000 Rx 1 0x152 s 6 00 00 00 0C 07 34 
12:56:37:1010 Rx 1 0x153 s 3 E9 D7 55 
12:56:37:1010 Rx 1 0x4F0 s 8 03 00 00 40 00 FF FF 4A 
12:56:37:1010 Rx 1 0x0F2 s 6 FF FF FF FF 99 99 
12:56:37:1020 Rx 1 0x254 s 4 1A 11 90 F5 
12:56:37:1070 Rx 1 0x130 s 8 E8 7F 20 00 D4 7F 2B DE 
12:56:37:1070 Rx 1 0x131 s 8 00 00 00 00 03 81 0B CC 
12:56:37:1080 Rx 1 0x100 s 8 00 00 63 00 10 00 50 2C 
12:56:37:1080 Rx 1 0x37B s 8 00 00 FF FF FF FF FF 0F 
12:56:37:1090 Rx 1 0x21A s 5 23 50 A0 80 4B 
12:56:37:1090 Rx 1 0x2B0 s 5 20 00 00 07 14 
12:56:37:1100 Rx 1 0x152 s 6 00 00 00 0C 08 8F 
12:56:37:1130 Rx 1 0x244 s 4 08 00 00 00 
12:56:37:1130 Rx 1 0x590 s 3 00 01 00 
12:56:37:1170 Rx 1 0x130 s 8 E8 7F 20 00 D4 7F 2C 8D 
12:56:37:1170 Rx 1 0x131 s 8 00 00 00 00 03 81 0C 9F 
12:56:37:1190 Rx 1 0x2B0 s 5 20 00 00 07 05 
12:56:37:1200 Rx 1 0x280 s 8 0F 01 FF 00 FD 58 03 B8 
12:56:37:1210 Rx 1 0x152 s 6 00 00 00 0C 09 92 
12:56:37:1210 Rx 1 0x153 s 3 E9 E7 1F 
12:56:37:1210 Rx 1 0x2F0 s 7 00 00 08 99 00 01 28 
12:56:37:1220 Rx 1 0x362 s 8 15 49 24 06 00 10 01 58 
12:56:37:1270 Rx 1 0x130 s 8 E8 7F 20 00 BE 7F 2D CF 
12:56:37:1270 Rx 1 0x131 s 8 00 00 00 00 EE 80 0D DB 
12:56:37:1280 Rx 1 0x100 s 8 00 00 63 00 10 00 60 66 
12:56:37:1280 Rx 1 0x3C1 s 5 00 00 00 E0 EB 
12:56:37:1280 Rx 1 0x21A s 5 23 50 A0 90 86 
12:56:37:1290 Rx 1 0x50E s 8 FF 03 00 00 00 72 01 80 
12:56:37:1290 Rx 1 0x2B0 s 5 20 00 00 07 36 
12:56:37:1300 Rx 1 0x510 s 6 FF FF 00 00 FF FF 
12:56:37:1300 Rx 1 0x152 s 6 00 00 00 0C 0A B5 
12:56:37:1310 Rx 1 0x151 s 3 3C 68 18 
12:56:37:1310 Rx 1 0x150 s 8 00 00 4A 64 00 80 86 00 
12:56:37:1310 Rx 1 0x155 s 7 FF 7F 00 18 00 70 7E 
12:56:37:1320 Rx 1 0x156 s 7 FF 7F 00 08 E8 73 4D 
12:56:37:1320 Rx 1 0x247 s 2 22 24 
12:56:37:1330 Rx 1 0x298 s 3 F8 BF 47 
12:56:37:1330 Rx 1 0x4CF s 6 00 00 00 00 00 00 
12:56:37:1340 Rx 1 0x2E7 s 6 06 78 15 65 70 20 
12:56:37:1370 Rx 1 0x130 s 8 E8 7F 20 00 BE 7F 2E E8 
12:56:37:1370 Rx 1 0x131 s 8 00 00 00 00 EE 80 0E FC 
12:56:37:1390 Rx 1 0x2B0 s 5 20 00 00 07 27 
12:56:37:1400 Rx 1 0x152 s 6 00 00 00 0C 0B A8 
12:56:37:1400 Rx 1 0x153 s 3 E9 F7 D2 
12:56:37:1410 Rx 1 0x243 s 2 08 00 
12:56:37:1460 Rx 1 0x246 s 4 00 01 08 09 
12:56:37:1470 Rx 1 0x130 s 8 00 80 20 00 A8 7F 2F 23 
12:56:37:1470 Rx 1 0x131 s 8 00 00 00 00 EE 80 0F E1 
12:56:37:1480 Rx 1 0x100 s 8 00 00 63 00 10 00 70 AB 
12:56:37:1480 Rx 1 0x21A s 5 23 50 A0 A0 CC 
12:56:37:1480 Rx 1 0x245 s 4 00 01 08 09 
12:56:37:1480 Rx 1 0x249 s 1 10 
12:56:37:1490 Rx 1 0x2B0 s 5 20 00 00 07 D8 
12:56:37:1500 Rx 1 0x152 s 6 00 00 00 0C 0C FB 
12:56:37:1570 Rx 1 0x130 s 8 00 80 20 00 A8 7F 20 98 
12:56:37:1570 Rx 1 0x131 s 8 00 00 00 00 EE 80 00 5A 
12:56:37:1580 Rx 1 0x3AA s 6 1E 00 CD FF 40 9C 
12:56:37:1590 Rx 1 0x2B0 s 5 20 00 00 07 C9 
12:56:37:1600 Rx 1 0x152 s 6 00 00 00 0C 0D E6 
12:56:37:1610 Rx 1 0x153 s 3 E9 07 AD 
12:56:37:1610 Rx 1 0x590 s 3 00 01 00 
12:56:37:1630 Rx 1 0x244 s 4 08 00 00 00 
12:56:37:1670 Rx 1 0x130 s 8 00 80 20 00 BE 7F 21 98 
12:56:37:1670 Rx 1 0x131 s 8 00 00 00 00 03 81 01 1E 
12:56:37:1680 Rx 1 0x100 s 8 00 00 63 00 10 00 80 D4 
12:56:37:1680 Rx 1 0x21A s 5 23 50 A0 B0 01 
12:56:37:1690 Rx 1 0x2B0 s 5 20 00 00 07 FA 
12:56:37:1700 Rx 1 0x280 s 8 0F 01 FF 00 FD 58 03 B8 
12:56:37:1710 Rx 1 0x152 s 6 00 00 00 0C 0E C1 
12:56:37:1710 Rx 1 0x157 s 8 90 00 94 30 66 00 70 2B 
12:56:37:1720 Rx 1 0x23E s 5 55 BC B0 B1 E1 
12:56:37:1720 Rx 1 0x23F s 5 55 BC B0 B1 E1 
12:56:37:1720 Rx 1 0x251 s 3 00 01 01 
12:56:37:1730 Rx 1 0x2F0 s 7 00 00 08 99 00 01 28 
12:56:37:1730 Rx 1 0x362 s 8 15 49 24 06 00 10 01 58 
12:56:37:1730 Rx 1 0x240 s 5 BC 83 EB CB FF 
12:56:37:1740 Rx 1 0x614 s 1 00 
12:56:37:1740 Rx 1 0x615 s 2 00 00 
12:56:37:1770 Rx 1 0x130 s 8 00 80 20 00 BE 7F 22 BF 
12:56:37:1770 Rx 1 0x131 s 8 00 00 00 00 03 81 02 39 
12:56:37:1790 Rx 1 0x2B0 s 5 20 00 00 07 EB 
12:56:37:1800 Rx 1 0x152 s 6 00 00 00 0C 0F DC 
12:56:37:1800 Rx 1 0x153 s 3 E9 17 60 
12:56:37:1810 Rx 1 0x260 s 2 00 00 
12:56:37:1810 Rx 1 0x210 s 3 B0 B4 04 
12:56:37:1820 Rx 1 0x247 s 2 22 24 
12:56:37:1820 Rx 1 0x241 s 5 BC 83 EB CB FF 
12:56:37:1860 Rx 1 0x21A s 5 23 50 A0 C0 58 
12:56:37:1870 Rx 1 0x130 s 8 E8 7F 20 00 BE 7F 23 69 
12:56:37:1870 Rx 1 0x131 s 8 00 00 00 00 03 81 03 24 
12:56:37:1880 Rx 1 0x100 s 8 00 00 63 00 10 00 90 19 
12:56:37:1880 Rx 1 0x242 s 4 7B D4 70 DF 
12:56:37:1890 Rx 1 0x2B0 s 5 20 00 00 07 9C 
12:56:37:1900 Rx 1 0x613 s 4 D2 BE 8A 04 
12:56:37:1910 Rx 1 0x152 s 6 00 00 00 0C 00 67 
12:56:37:1910 Rx 1 0x243 s 2 08 00 
12:56:37:1960 Rx 1 0x246 s 4 00 01 09 08 
12:56:37:1970 Rx 1 0x130 s 8 E8 7F 20 00 BE 7F 24 3A 
12:56:37:1970 Rx 1 0x131 s 8 00 00 00 00 03 81 04 77 
12:56:37:1980 Rx 1 0x245 s 4 00 01 09 08 
12:56:37:1980 Rx 1 0x249 s 1 10 
12:56:37:1990 Rx 1 0x2B0 s 5 20 00 00 07 8D 
12:56:37:2000 Rx 1 0x152 s 6 00 00 00 0C 01 7A 
12:56:37:2010 Rx 1 0x153 s 3 E9 27 2A 
12:56:37:2010 Rx 1 0x4F0 s 8 10 00 00 40 00 FF FF 4A 
12:56:37:2010 Rx 1 0x0F2 s 6 FF FF FF FF AA AA 
12:56:37:2020 Rx 1 0x254 s 4 1A 11 A0 BF 
12:56:37:2060 Rx 1 0x21A s 5 23 50 A0 D0 95 
12:56:37:2070 Rx 1 0x130 s 8 E8 7F 20 00 BE 7F 25 27 
12:56:37:2070 Rx 1 0x131 s 8 00 00 00 00 03 81 05 6A 
12:56:37:2080 Rx 1 0x100 s 8 00 00 63 00 10 00 A0 53 
12:56:37:2080 Rx 1 0x37B s 8 00 00 FF FF FF FF FF 00 
12:56:37:2090 Rx 1 0x2B0 s 5 20 00 00 07 BE 
12:56:37:2100 Rx 1 0x152 s 6 00 00 00 0C 02 5D 
12:56:37:2120 Rx 1 0x590 s 3 00 01 00 
12:56:37:2130 Rx 1 0x244 s 4 08 00 00 00 
12:56:37:2170 Rx 1 0x130 s 8 E8 7F 20 00 BE 7F 26 00 
12:56:37:2170 Rx 1 0x131 s 8 00 00 00 00 03 81 06 4D 
12:56:37:2190 Rx 1 0x2B0 s 5 20 00 00 07 AF 
12:56:37:2200 Rx 1 0x280 s 8 0F 01 FF 00 FD 58 03 B8 
12:56:37:2210 Rx 1 0x152 s 6 00 00 00 0C 03 40 
12:56:37:2210 Rx 1 0x153 s 3 E9 37 E7 
12:56:37:2210 Rx 1 0x2F0 s 7 00 00 08 99 00 01 28 
12:56:37:2220 Rx 1 0x362 s 8 15 49 24 06 00 10 01 58 
12:56:37:2250 Rx 1 0x21A s 5 23 50 A0 E0 DF 
12:56:37:2270 Rx 1 0x130 s 8 00 80 20 00 D4 7F 27 89 
12:56:37:2270 Rx 1 0x131 s 8 00 00 00 00 03 81 07 50 
12:56:37:2280 Rx 1 0x100 s 8 00 00 63 00 10 00 B0 9E 
12:56:37:2290 Rx 1 0x2B0 s 5 20 00 00 07 50 
12:56:37:2300 Rx 1 0x152 s 6 00 00 00 0C 04 13 
12:56:37:2310 Rx 1 0x150 s 8 00 00 4A 64 00 80 86 00 
12:56:37:2320 Rx 1 0x151 s 3 3C 68 18 
12:56:37:2320 Rx 1 0x155 s 7 FF 7F 00 18 00 80 01 
12:56:37:2320 Rx 1 0x156 s 7 FF 7F 00 08 E8 83 32 
12:56:37:2330 Rx 1 0x247 s 2 22 24 
12:56:37:2330 Rx 1 0x310 s 3 00 A4 A4 
12:56:37:2340 Rx 1 0x4CF s 6 00 00 00 00 00 00 
12:56:37:2370 Rx 1 0x130 s 8 00 80 20 00 D4 7F 28 32 
12:56:37:2370 Rx 1 0x131 s 8 00 00 00 00 03 81 08 EB 
12:56:37:2390 Rx 1 0x2B0 s 5 20 00 00 07 41 
12:56:37:2400 Rx 1 0x152 s 6 00 00 00 0C 05 0E 
12:56:37:2400 Rx 1 0x153 s 3 E9 47 BE 
12:56:37:2410 Rx 1 0x243 s 2 08 00 
12:56:37:2430 Rx 1 0x21A s 5 23 50 A0 F0 12 
12:56:37:2460 Rx 1 0x246 s 4 00 01 0A 0B 
12:56:37:2470 Rx 1 0x130 s 8 E8 7F 20 00 A8 7F 29 A6 
12:56:37:2470 Rx 1 0x131 s 8 00 00 00 00 03 81 09 F6 
12:56:37:2480 Rx 1 0x100 s 8 00 00 63 00 10 00 C0 C7 
12:56:37:2480 Rx 1 0x245 s 4 00 01 0A 0B 
12:56:37:2480 Rx 1 0x249 s 1 10 
12:56:37:2490 Rx 1 0x4D1 s 7 00 00 00 00 00 00 00 
12:56:37:2490 Rx 1 0x2B0 s 5 20 00 00 07 72 
12:56:37:2500 Rx 1 0x152 s 6 00 00 00 0C 06 29 
12:56:37:2550 Rx 1 0x4D3 s 7 00 00 00 00 00 00 00 
12:56:37:2570 Rx 1 0x130 s 8 E8 7F 20 00 A8 7F 2A 81 
12:56:37:2570 Rx 1 0x131 s 8 00 00 00 00 03 81 0A D1 
12:56:37:2590 Rx 1 0x2B0 s 5 20 00 00 07 63 
12:56:37:2600 Rx 1 0x152 s 6 00 00 00 0C 07 34 
12:56:37:2600 Rx 1 0x153 s 3 E9 57 73 
12:56:37:2620 Rx 1 0x590 s 3 00 01 00 
12:56:37:2630 Rx 1 0x21A s 5 23 50 A0 00 6D 
12:56:37:2630 Rx 1 0x244 s 4 08 00 00 00 
12:56:37:2670 Rx 1 0x130 s 8 E8 7F 20 00 A8 7F 2B 9C 
12:56:37:2670 Rx 1 0x131 s 8 00 00 00 00 EE 80 0B 95 
12:56:37:2680 Rx 1 0x100 s 8 00 00 63 00 10 00 D0 0A 
12:56:37:2680 Rx 1 0x3AA s 6 1E 00 CD FF 40 9C 
12:56:37:2680 Rx 1 0x240 s 5 BC 83 EB CB FF 
12:56:37:2690 Rx 1 0x2B0 s 5 20 00 00 07 14 
12:56:37:2700 Rx 1 0x280 s 8 0F 01 FF 00 FD 58 03 B8 
12:56:37:2710 Rx 1 0x152 s 6 00 00 00 0C 08 8F 
12:56:37:2710 Rx 1 0x157 s 8 90 00 94 40 9D 00 70 2B 
12:56:37:2720 Rx 1 0x23E s 5 55 BC B0 B1 E1 
12:56:37:2720 Rx 1 0x23F s 5 55 BC B0 B1 E1 
12:56:37:2720 Rx 1 0x251 s 3 00 02 02 
12:56:37:2730 Rx 1 0x2F0 s 7 00 00 08 99 00 01 28 
12:56:37:2730 Rx 1 0x362 s 8 15 49 24 06 00 10 01 58 
12:56:37:2730 Rx 1 0x614 s 1 00 
12:56:37:2740 Rx 1 0x615 s 2 00 00 
12:56:37:2770 Rx 1 0x130 s 8 E8 7F 20 00 A8 7F 2C CF 
12:56:37:2770 Rx 1 0x131 s 8 00 00 00 00 EE 80 0C C6 
12:56:37:2780 Rx 1 0x241 s 5 BC 83 EB CB FF 
12:56:37:2790 Rx 1 0x2B0 s 5 20 00 00 07 05 
12:56:37:2800 Rx 1 0x260 s 2 00 00 
12:56:37:2800 Rx 1 0x152 s 6 00 00 00 0C 09 92 
12:56:37:2810 Rx 1 0x153 s 3 E9 67 39 
12:56:37:2810 Rx 1 0x210 s 3 B0 C4 74 
12:56:37:2820 Rx 1 0x247 s 2 22 24 
12:56:37:2820 Rx 1 0x21A s 5 23 50 A0 10 A0 
12:56:37:2830 Rx 1 0x380 s 8 A2 82 FF 00 00 00 50 CC 
12:56:37:2840 Rx 1 0x43A s 2 00 00 
12:56:37:2840 Rx 1 0x4CA s 8 FC 03 00 00 8E 0E 0E 2E 
12:56:37:2840 Rx 1 0x4CD s 4 77 77 01 00 
12:56:37:2870 Rx 1 0x130 s 8 E8 7F 20 00 A8 7F 2D D2 
12:56:37:2870 Rx 1 0x131 s 8 00 00 00 00 03 81 0D 82 
12:56:37:2880 Rx 1 0x100 s 8 00 00 63 00 10 00 E0 40 
12:56:37:2880 Rx 1 0x242 s 4 7B D4 80 2F 
12:56:37:2890 Rx 1 0x2B0 s 5 20 00 00 07 36 
12:56:37:2900 Rx 1 0x613 s 4 D2 BE 8A 04 
12:56:37:2910 Rx 1 0x152 s 6 00 00 00 0C 0A B5 
12:56:37:2910 Rx 1 0x243 s 2 08 00 
12:56:37:2960 Rx 1 0x246 s 4 00 01 0B 0A 
12:56:37:2970 Rx 1 0x130 s 8 E8 7F 20 00 A8 7F 2E F5 
12:56:37:2970 Rx 1 0x131 s 8 00 00 00 00 03 81 0E A5 
12:56:37:2980 Rx 1 0x245 s 4 00 01 0B 0A 
12:56:37:2980 Rx 1 0x249 s 1 10 
12:56:37:2990 Rx 1 0x2B0 s 5 20 00 00 07 27 
12:56:37:3000 Rx 1 0x4F0 s 8 13 00 00 40 00 FF FF 4A 
12:56:37:3010 Rx 1 0x152 s 6 00 00 00 0C 0B A8 
12:56:37:3010 Rx 1 0x153 s 3 E9 77 F4 
12:56:37:3010 Rx 1 0x0F2 s 6 FF FF FF FF BB BB 
12:56:37:3020 Rx 1 0x254 s 4 1A 11 B0 72 
12:56:37:3020 Rx 1 0x21A s 5 23 50 A0 20 EA 
12:56:37:3060 Rx 1 0x37B s 8 00 00 FF FF FF FF FF 01 
12:56:37:3070 Rx 1 0x130 s 8 00 80 20 00 BE 7F 2F 3E 
12:56:37:3070 Rx 1 0x131 s 8 00 00 00 00 03 81 0F B8 
12:56:37:3080 Rx 1 0x100 s 8 00 00 63 00 10 00 F0 8D 
12:56:37:3090 Rx 1 0x2B0 s 5 20 00 00 07 D8 
12:56:37:3100 Rx 1 0x152 s 6 00 00 00 0C 0C FB 
12:56:37:3120 Rx 1 0x590 s 3 00 01 00 
12:56:37:3130 Rx 1 0x244 s 4 08 00 00 00 
12:56:37:3170 Rx 1 0x130 s 8 00 80 20 00 BE 7F 20 85 
12:56:37:3170 Rx 1 0x131 s 8 00 00 00 00 03 81 00 03 
12:56:37:3190 Rx 1 0x2B0 s 5 20 00 00 07 C9 
12:56:37:3200 Rx 1 0x280 s 8 0F 01 FF 00 FD 58 03 B8 
12:56:37:3210 Rx 1 0x152 s 6 00 00 00 0C 0D E6 
12:56:37:3210 Rx 1 0x153 s 3 E9 87 8B 
12:56:37:3210 Rx 1 0x21A s 5 23 50 A0 30 27 
12:56:37:3220 Rx 1 0x27D s 8 00 00 00 00 00 00 00 00 
12:56:37:3220 Rx 1 0x2F0 s 7 00 00 08 99 00 01 28 
12:56:37:3230 Rx 1 0x362 s 8 15 49 24 06 00 10 01 58 
12:56:37:3230 Rx 1 0x365 s 6 00 54 00 02 60 7D 
12:56:37:3230 Rx 1 0x4D0 s 2 00 00 
12:56:37:3270 Rx 1 0x130 s 8 00 80 20 00 BE 7F 21 98 
12:56:37:3270 Rx 1 0x131 s 8 00 00 00 00 03 81 01 1E 
12:56:37:3280 Rx 1 0x100 s 8 00 00 63 00 10 00 00 F2 
12:56:37:3290 Rx 1 0x2B0 s 5 20 00 00 07 FA 
12:56:37:3300 Rx 1 0x152 s 6 00 00 00 0C 0E C1 
12:56:37:3310 Rx 1 0x151 s 3 3C 68 18 
12:56:37:3310 Rx 1 0x150 s 8 00 00 4A 64 00 80 86 00 
12:56:37:3320 Rx 1 0x155 s 7 FF 7F 00 18 00 90 CC 
12:56:37:3320 Rx 1 0x156 s 7 FF 7F 00 08 E8 93 FF 
12:56:37:3320 Rx 1 0x247 s 2 22 24 
12:56:37:3330 Rx 1 0x298 s 3 F8 CF 37 
12:56:37:3330 Rx 1 0x4CF s 6 00 00 00 00 00 00 
12:56:37:3370 Rx 1 0x130 s 8 00 80 20 00 BE 7F 22 BF 
12:56:37:3370 Rx 1 0x131 s 8 00 00 00 00 03 81 02 39 
12:56:37:3390 Rx 1 0x2B0 s 5 20 00 00 07 EB 
12:56:37:3400 Rx 1 0x152 s 6 00 00 00 0C 0F DC 
12:56:37:3400 Rx 1 0x153 s 3 E9 97 46 
12:56:37:3410 Rx 1 0x21A s 5 23 50 A0 40 7E 
12:56:37:3420 Rx 1 0x243 s 2 08 00 
12:56:37:3460 Rx 1 0x246 s 4 00 01 0C 0D 
12:56:37:3470 Rx 1 0x130 s 8 00 80 20 00 BE 7F 23 A2 
12:56:37:3470 Rx 1 0x131 s 8 00 00 00 00 EE 80 03 7D 
12:56:37:3480 Rx 1 0x100 s 8 00 00 63 00 10 00 10 3F 
12:56:37:3480 Rx 1 0x245 s 4 00 01 0C 0D 
12:56:37:3480 Rx 1 0x249 s 1 10 
12:56:37:3490 Rx 1 0x2B0 s 5 20 00 00 07 9C 
12:56:37:3500 Rx 1 0x152 s 6 00 00 00 0C 00 67 
12:56:37:3570 Rx 1 0x130 s 8 00 80 20 00 BE 7F 24 F1 
12:56:37:3570 Rx 1 0x131 s 8 00 00 00 00 EE 80 04 2E 
12:56:37:3590 Rx 1 0x2B0 s 5 20 00 00 07 8D 
12:56:37:3600 Rx 1 0x21A s 5 23 50 A0 50 B3 
12:56:37:3600 Rx 1 0x152 s 6 00 00 00 0C 01 7A 
12:56:37:3610 Rx 1 0x153 s 3 E9 A7 0C 
12:56:37:3620 Rx 1 0x590 s 3 00 01 00 
12:56:37:3630 Rx 1 0x244 s 4 08 00 00 00 
12:56:37:3670 Rx 1 0x130 s 8 E8 7F 20 00 BE 7F 25 27 
12:56:37:3670 Rx 1 0x131 s 8 00 00 00 00 03 81 05 6A 
12:56:37:3680 Rx 1 0x100 s 8 00 00 63 00 10 00 20 75 
12:56:37:3690 Rx 1 0x2B0 s 5 20 00 00 07 BE 
12:56:37:3700 Rx 1 0x280 s 8 0F 01 FF 00 FD 58 03 B8 
12:56:37:3710 Rx 1 0x152 s 6 00 00 00 0C 02 5D 
12:56:37:3710 Rx 1 0x157 s 8 90 00 94 50 B8 00 70 2B 
12:56:37:3710 Rx 1 0x23E s 5 55 BC B0 B1 E1 
12:56:37:3720 Rx 1 0x23F s 5 55 BC B0 B1 E1 
12:56:37:3720 Rx 1 0x240 s 5 BC 83 EB CB FF 
12:56:37:3720 Rx 1 0x251 s 3 00 03 03 
12:56:37:3730 Rx 1 0x2F0 s 7 00 00 08 99 00 01 28 
12:56:37:3730 Rx 1 0x362 s 8 15 49 24 06 00 10 01 58 
12:56:37:3740 Rx 1 0x614 s 1 00 
12:56:37:3740 Rx 1 0x615 s 2 00 00 
12:56:37:3770 Rx 1 0x130 s 8 E8 7F 20 00 BE 7F 26 00 
12:56:37:3770 Rx 1 0x131 s 8 00 00 00 00 03 81 06 4D 
12:56:37:3780 Rx 1 0x3AA s 6 1E 00 CD FF 40 9C 
12:56:37:3790 Rx 1 0x21A s 5 23 50 A0 60 F9 
12:56:37:3790 Rx 1 0x2B0 s 5 20 00 00 07 AF 
12:56:37:3800 Rx 1 0x153 s 3 E9 B7 C1 
12:56:37:3800 Rx 1 0x152 s 6 00 00 00 0C 03 40 
12:56:37:3810 Rx 1 0x260 s 2 00 00 
12:56:37:3810 Rx 1 0x210 s 3 B0 D4 64 
12:56:37:3810 Rx 1 0x241 s 5 BC 83 EB CB FF 
12:56:37:3820 Rx 1 0x247 s 2 22 24 
12:56:37:3870 Rx 1 0x130 s 8 00 80 20 00 BE 7F 27 D6 
12:56:37:3870 Rx 1 0x131 s 8 00 00 00 00 19 81 07 47 
12:56:37:3880 Rx 1 0x100 s 8 00 00 63 00 10 00 30 B8 
12:56:37:3880 Rx 1 0x242 s 4 7B D4 90 3F 
12:56:37:3890 Rx 1 0x2B0 s 5 20 00 00 07 50 
12:56:37:3900 Rx 1 0x613 s 4 D2 BE 8A 04 
12:56:37:3910 Rx 1 0x152 s 6 00 00 00 0C 04 13 
12:56:37:3910 Rx 1 0x243 s 2 08 00 
12:56:37:3960 Rx 1 0x246 s 4 00 01 0D 0C 
12:56:37:3970 Rx 1 0x130 s 8 00 80 20 00 BE 7F 28 6D 
12:56:37:3970 Rx 1 0x131 s 8 00 00 00 00 19 81 08 FC 
12:56:37:3980 Rx 1 0x245 s 4 00 01 0D 0C 
12:56:37:3980 Rx 1 0x249 s 1 10 
12:56:37:3980 Rx 1 0x21A s 5 23 50 A0 70 34 
12:56:37:3990 Rx 1 0x2B0 s 5 20 00 00 07 41 
12:56:37:4000 Rx 1 0x4F0 s 8 00 00 00 40 00 FF FF 4A 
12:56:37:4010 Rx 1 0x152 s 6 00 00 00 0C 05 0E 
12:56:37:4010 Rx 1 0x153 s 3 E9 C7 98 
12:56:37:4010 Rx 1 0x0F2 s 6 FF FF FF FF CC CC 
12:56:37:4020 Rx 1 0x254 s 4 1A 11 C0 2B 
12:56:37:4050 Rx 1 0x37B s 8 00 00 FF FF FF FF FF 02 
12:56:37:4070 Rx 1 0x130 s 8 E8 7F 20 00 BE 7F 29 BB 
12:56:37:4070 Rx 1 0x131 s 8 00 00 00 00 EE 80 09 AF 
12:56:37:4080 Rx 1 0x100 s 8 00 00 63 00 10 00 40 E1 
12:56:37:4090 Rx 1 0x2B0 s 5 20 00 00 07 72 
12:56:37:4100 Rx 1 0x152 s 6 00 00 00 0C 06 29 
12:56:37:4120 Rx 1 0x590 s 3 00 01 00 
12:56:37:4130 Rx 1 0x244 s 4 08 00 00 00 
12:56:37:4170 Rx 1 0x130 s 8 E8 7F 20 00 BE 7F 2A 9C 
12:56:37:4170 Rx 1 0x131 s 8 00 00 00 00 EE 80 0A 88 
12:56:37:4180 Rx 1 0x21A s 5 23 50 A0 80 4B 
12:56:37:4190 Rx 1 0x2B0 s 5 20 00 00 07 63 
12:56:37:4200 Rx 1 0x280 s 8 0F 01 FF 00 FD 58 03 B8 
12:56:37:4210 Rx 1 0x152 s 6 00 00 00 0C 07 34 
12:56:37:4210 Rx 1 0x153 s 3 E9 D7 55 
12:56:37:4210 Rx 1 0x2F0 s 7 00 00 08 99 00 01 28 
12:56:37:4220 Rx 1 0x362 s 8 15 49 24 06 00 10 01 58 
12:56:37:4270 Rx 1 0x130 s 8 E8 7F 20 00 BE 7F 2B 81 
12:56:37:4270 Rx 1 0x131 s 8 00 00 00 00 03 81 0B CC 
12:56:37:4280 Rx 1 0x100 s 8 00 00 63 00 10 00 50 2C 
12:56:37:4290 Rx 1 0x2B0 s 5 20 00 00 07 14 
12:56:37:4300 Rx 1 0x152 s 6 00 00 00 0C 08 8F 
12:56:37:4310 Rx 1 0x150 s 8 00 00 4A 64 00 80 86 00 
12:56:37:4310 Rx 1 0x151 s 3 3C 68 18 
12:56:37:4320 Rx 1 0x155 s 7 FF 7F 00 18 00 A0 86 
12:56:37:4320 Rx 1 0x156 s 7 FF 7F 00 08 E8 A3 B5 
12:56:37:4330 Rx 1 0x247 s 2 22 24 
12:56:37:4330 Rx 1 0x310 s 3 00 B4 B4 
12:56:37:4340 Rx 1 0x4CF s 6 00 00 00 00 00 00 
12:56:37:4370 Rx 1 0x130 s 8 E8 7F 20 00 BE 7F 2C D2 
12:56:37:4370 Rx 1 0x131 s 8 00 00 00 00 03 81 0C 9F 
12:56:37:4370 Rx 1 0x21A s 5 23 50 A0 90 86 
12:56:37:4390 Rx 1 0x2B0 s 5 20 00 00 07 05 
12:56:37:4400 Rx 1 0x152 s 6 00 00 00 0C 09 92 
12:56:37:4400 Rx 1 0x153 s 3 E9 E7 1F 
12:56:37:4410 Rx 1 0x243 s 2 08 00 
12:56:37:4460 Rx 1 0x246 s 4 00 01 0E 0F 
12:56:37:4470 Rx 1 0x130 s 8 E8 7F 20 00 D4 7F 2D 90 
12:56:37:4470 Rx 1 0x131 s 8 00 00 00 00 03 81 0D 82 
12:56:37:4480 Rx 1 0x100 s 8 00 00 63 00 10 00 60 66 
12:56:37:4480 Rx 1 0x245 s 4 00 01 0E 0F 
12:56:37:4480 Rx 1 0x249 s 1 10 
12:56:37:4490 Rx 1 0x2B0 s 5 20 00 00 07 36 
12:56:37:4500 Rx 1 0x152 s 6 00 00 00 0C 0A B5 
12:56:37:4570 Rx 1 0x130 s 8 E8 7F 20 00 D4 7F 2E B7 
12:56:37:4570 Rx 1 0x131 s 8 00 00 00 00 03 81 0E A5 
12:56:37:4570 Rx 1 0x21A s 5 23 50 A0 A0 CC 
12:56:37:4590 Rx 1 0x2B0 s 5 20 00 00 07 27 
12:56:37:4600 Rx 1 0x153 s 3 E9 F7 D2 
12:56:37:4600 Rx 1 0x152 s 6 00 00 00 0C 0B A8 
12:56:37:4620 Rx 1 0x590 s 3 00 01 00 
12:56:37:4630 Rx 1 0x244 s 4 08 00 00 00 
12:56:37:4670 Rx 1 0x130 s 8 E8 7F 20 00 BE 7F 2F F5 
12:56:37:4670 Rx 1 0x131 s 8 00 00 00 00 EE 80 0F E1 
12:56:37:4680 Rx 1 0x100 s 8 00 00 63 00 10 00 70 AB 
12:56:37:4680 Rx 1 0x240 s 5 BC 83 EB CB FF 
12:56:37:4690 Rx 1 0x2B0 s 5 20 00 00 07 D8 
12:56:37:4700 Rx 1 0x280 s 8 0F 01 FF 00 FD 58 03 B8 
12:56:37:4710 Rx 1 0x152 s 6 00 00 00 0C 0C FB 
12:56:37:4710 Rx 1 0x157 s 8 90 00 94 60 D7 00 70 2B 
12:56:37:4720 Rx 1 0x23E s 5 55 BC B0 B1 E1 
12:56:37:4720 Rx 1 0x23F s 5 55 BC B0 B1 E1 
12:56:37:4720 Rx 1 0x251 s 3 00 04 04 
12:56:37:4730 Rx 1 0x2F0 s 7 00 00 08 99 00 01 28 
12:56:37:4730 Rx 1 0x362 s 8 15 49 24 06 00 10 01 58 
12:56:37:4730 Rx 1 0x614 s 1 00 
12:56:37:4740 Rx 1 0x615 s 2 00 00 
12:56:37:4750 Rx 1 0x21A s 5 23 50 A0 B0 01 
12:56:37:4770 Rx 1 0x130 s 8 E8 7F 20 00 BE 7F 20 4E 
12:56:37:4770 Rx 1 0x131 s 8 00 00 00 00 EE 80 00 5A 
12:56:37:4780 Rx 1 0x241 s 5 BC 83 EB CB FF 
12:56:37:4790 Rx 1 0x2B0 s 5 20 00 00 07 C9 
12:56:37:4800 Rx 1 0x260 s 2 00 00 
12:56:37:4810 Rx 1 0x152 s 6 00 00 00 0C 0D E6 
12:56:37:4810 Rx 1 0x153 s 3 E9 07 AD 
